!Created: 07-08-2014 at 15:45:11
!MODEL: BFCG-162W+
!S/N: Unit 1
# MHZ S DB R 50
!Frequency        S11 dB  S11 DEG   S21 dB  S21 DEG   S12 dB  S12 DEG   S22 dB  S22 DEG
  10.0000     -4.768315E-002 -4.703167E+000 -5.542183E+001  8.588480E+001 -5.531155E+001  8.283651E+001 -3.481742E-002 -4.549738E+000
  20.0000     -4.433927E-002 -9.400528E+000 -4.922791E+001  8.114443E+001 -4.917713E+001  8.087612E+001 -2.962395E-002 -9.136868E+000
  30.0000     -4.279862E-002 -1.406562E+001 -4.578648E+001  7.605045E+001 -4.582531E+001  7.603244E+001 -2.737313E-002 -1.366948E+001
  40.0000     -4.591712E-002 -1.871798E+001 -4.339729E+001  7.151513E+001 -4.344584E+001  7.152149E+001 -2.727547E-002 -1.819831E+001
  50.0000     -4.710910E-002 -2.334385E+001 -4.158979E+001  6.699632E+001 -4.161620E+001  6.710582E+001 -2.969046E-002 -2.270080E+001
  60.0000     -4.785316E-002 -2.793736E+001 -4.017412E+001  6.260045E+001 -4.020693E+001  6.235834E+001 -3.276645E-002 -2.718529E+001
  70.0000     -5.191104E-002 -3.247218E+001 -3.904252E+001  5.793795E+001 -3.906587E+001  5.803014E+001 -3.496185E-002 -3.163577E+001
  80.0000     -5.576549E-002 -3.696274E+001 -3.811002E+001  5.358804E+001 -3.812470E+001  5.348202E+001 -3.882044E-002 -3.604140E+001
  90.0000     -5.814895E-002 -4.139035E+001 -3.734192E+001  4.912728E+001 -3.734598E+001  4.922479E+001 -4.163290E-002 -4.035054E+001
 100.0000     -6.298138E-002 -4.576986E+001 -3.670676E+001  4.486658E+001 -3.672948E+001  4.487788E+001 -4.703205E-002 -4.460113E+001
 150.0000     -1.067384E-001 -6.662652E+001 -3.496289E+001  2.432590E+001 -3.498525E+001  2.434980E+001 -9.180048E-002 -6.514455E+001
 200.0000     -1.624031E-001 -8.560620E+001 -3.490990E+001  5.955543E+000 -3.491231E+001  6.164842E+000 -1.485949E-001 -8.386357E+001
 250.0000     -2.212629E-001 -1.027269E+002 -3.602993E+001 -1.025472E+001 -3.603297E+001 -1.015162E+001 -2.107197E-001 -1.008610E+002
 300.0000     -2.869782E-001 -1.183160E+002 -3.827520E+001 -2.436652E+001 -3.828631E+001 -2.423443E+001 -2.830706E-001 -1.166039E+002
 350.0000     -3.540905E-001 -1.324762E+002 -4.191567E+001 -3.587819E+001 -4.189682E+001 -3.577621E+001 -3.556092E-001 -1.310645E+002
 400.0000     -4.241291E-001 -1.458303E+002 -4.784502E+001 -4.231346E+001 -4.787926E+001 -4.223966E+001 -4.287520E-001 -1.445788E+002
 450.0000     -5.117927E-001 -1.586564E+002 -5.985343E+001 -1.212393E+001 -5.999063E+001 -1.268218E+001 -5.163568E-001 -1.576745E+002
 500.0000     -5.988640E-001 -1.715310E+002 -5.447981E+001  8.095381E+001 -5.445842E+001  8.070207E+001 -6.032896E-001 -1.706879E+002
 550.0000     -7.134513E-001  1.751917E+002 -5.102693E+001  8.028545E+001 -5.104784E+001  8.050374E+001 -7.091973E-001  1.758538E+002
 600.0000     -8.673807E-001  1.607524E+002 -5.162103E+001  7.094962E+001 -5.171310E+001  7.095434E+001 -8.529894E-001  1.618163E+002
 650.0000     -1.085266E+000  1.440521E+002 -5.229520E+001  4.524839E+001 -5.239472E+001  4.534803E+001 -1.058674E+000  1.454922E+002
 700.0000     -1.460792E+000  1.231676E+002 -4.406300E+001  7.399642E+000 -4.399869E+001  7.453883E+000 -1.373138E+000  1.255272E+002
 750.0000     -2.241763E+000  9.309563E+001 -3.313613E+001 -1.742900E+001 -3.311296E+001 -1.738525E+001 -1.995150E+000  9.829222E+001
 800.0000     -4.559707E+000  3.958151E+001 -2.703796E+001 -2.628548E+001 -2.704829E+001 -2.630989E+001 -3.637881E+000  5.341454E+001
 810.0000     -5.570009E+000  2.255724E+001 -2.519019E+001 -1.308216E+001 -2.519143E+001 -1.312794E+001 -4.323681E+000  4.011369E+001
 820.0000     -6.971680E+000  1.891662E+000 -2.117944E+001 -3.006509E+000 -2.117256E+001 -3.049928E+000 -5.289580E+000  2.460510E+001
 830.0000     -8.909767E+000 -2.324788E+001 -1.643799E+001 -6.200567E+000 -1.643401E+001 -6.234516E+000 -6.691481E+000  6.664653E+000
 840.0000     -1.144379E+001 -5.341329E+001 -1.236395E+001 -1.936495E+001 -1.236004E+001 -1.938982E+001 -8.699492E+000 -1.353363E+001
 850.0000     -1.427149E+001 -8.820718E+001 -9.324674E+000 -3.717629E+001 -9.322410E+000 -3.719206E+001 -1.138618E+001 -3.533434E+001
 860.0000     -1.661818E+001 -1.243526E+002 -7.227819E+000 -5.587943E+001 -7.225091E+000 -5.590517E+001 -1.460181E+001 -5.871575E+001
 870.0000     -1.800822E+001 -1.555513E+002 -5.825149E+000 -7.352275E+001 -5.822764E+000 -7.352731E+001 -1.792967E+001 -8.476284E+001
 880.0000     -1.876383E+001 -1.781833E+002 -4.872968E+000 -8.941016E+001 -4.867764E+000 -8.942326E+001 -2.066879E+001 -1.141643E+002
 890.0000     -1.930646E+001  1.664870E+002 -4.201221E+000 -1.035682E+002 -4.196791E+000 -1.035817E+002 -2.221419E+001 -1.437341E+002
 900.0000     -1.983422E+001  1.561868E+002 -3.708448E+000 -1.162013E+002 -3.704214E+000 -1.162046E+002 -2.278161E+001 -1.681833E+002
 910.0000     -2.044433E+001  1.493213E+002 -3.331623E+000 -1.275820E+002 -3.325593E+000 -1.275909E+002 -2.312333E+001  1.736085E+002
 920.0000     -2.124753E+001  1.448761E+002 -3.033665E+000 -1.379283E+002 -3.023787E+000 -1.379416E+002 -2.369672E+001  1.601085E+002
 930.0000     -2.230692E+001  1.426125E+002 -2.788001E+000 -1.474205E+002 -2.779237E+000 -1.474167E+002 -2.470603E+001  1.500840E+002
 940.0000     -2.364081E+001  1.426669E+002 -2.584728E+000 -1.561723E+002 -2.574510E+000 -1.561805E+002 -2.629530E+001  1.432838E+002
 950.0000     -2.522736E+001  1.463031E+002 -2.410547E+000 -1.643203E+002 -2.401219E+000 -1.643376E+002 -2.856985E+001  1.410859E+002
 960.0000     -2.695300E+001  1.551215E+002 -2.263325E+000 -1.719621E+002 -2.253129E+000 -1.719739E+002 -3.173223E+001  1.482042E+002
 970.0000     -2.820411E+001  1.714713E+002 -2.136036E+000 -1.791328E+002 -2.127604E+000 -1.791529E+002 -3.466364E+001  1.767986E+002
 980.0000     -2.808478E+001 -1.682950E+002 -2.026754E+000  1.741026E+002 -2.019412E+000  1.740776E+002 -3.279605E+001 -1.447031E+002
 990.0000     -2.653266E+001 -1.518874E+002 -1.933652E+000  1.676921E+002 -1.925127E+000  1.676742E+002 -2.886460E+001 -1.289135E+002
1000.0000     -2.456197E+001 -1.431677E+002 -1.853852E+000  1.616048E+002 -1.845830E+000  1.615912E+002 -2.582680E+001 -1.248033E+002
1010.0000     -2.272587E+001 -1.392055E+002 -1.785056E+000  1.558102E+002 -1.777014E+000  1.557871E+002 -2.348648E+001 -1.249358E+002
1020.0000     -2.111107E+001 -1.383103E+002 -1.725634E+000  1.502963E+002 -1.718788E+000  1.502801E+002 -2.166847E+001 -1.269788E+002
1030.0000     -1.977547E+001 -1.391464E+002 -1.674262E+000  1.450241E+002 -1.668552E+000  1.450019E+002 -2.018716E+001 -1.296962E+002
1040.0000     -1.866268E+001 -1.410215E+002 -1.631866E+000  1.399680E+002 -1.626673E+000  1.399562E+002 -1.899481E+001 -1.327748E+002
1050.0000     -1.772199E+001 -1.434974E+002 -1.595219E+000  1.351257E+002 -1.588633E+000  1.351266E+002 -1.800872E+001 -1.359407E+002
1060.0000     -1.695253E+001 -1.460634E+002 -1.561012E+000  1.304905E+002 -1.557025E+000  1.304894E+002 -1.721219E+001 -1.392454E+002
1070.0000     -1.630446E+001 -1.488692E+002 -1.533191E+000  1.260295E+002 -1.528562E+000  1.260331E+002 -1.656517E+001 -1.428194E+002
1080.0000     -1.576528E+001 -1.516024E+002 -1.508353E+000  1.217428E+002 -1.502726E+000  1.217349E+002 -1.602360E+001 -1.465675E+002
1090.0000     -1.530958E+001 -1.542038E+002 -1.486095E+000  1.176007E+002 -1.480334E+000  1.175903E+002 -1.556996E+001 -1.504178E+002
1100.0000     -1.492060E+001 -1.568571E+002 -1.465962E+000  1.136093E+002 -1.459801E+000  1.136012E+002 -1.517770E+001 -1.541815E+002
1110.0000     -1.460471E+001 -1.593110E+002 -1.445861E+000  1.097429E+002 -1.439024E+000  1.097498E+002 -1.485679E+001 -1.578758E+002
1120.0000     -1.436051E+001 -1.618799E+002 -1.426209E+000  1.060103E+002 -1.420234E+000  1.059971E+002 -1.461638E+001 -1.614676E+002
1130.0000     -1.418593E+001 -1.643835E+002 -1.407939E+000  1.023776E+002 -1.401541E+000  1.023838E+002 -1.444186E+001 -1.650312E+002
1140.0000     -1.404565E+001 -1.669003E+002 -1.389856E+000  9.884779E+001 -1.382046E+000  9.884763E+001 -1.430669E+001 -1.683725E+002
1150.0000     -1.394283E+001 -1.696094E+002 -1.371378E+000  9.542249E+001 -1.363199E+000  9.541584E+001 -1.418888E+001 -1.716021E+002
1160.0000     -1.386391E+001 -1.722833E+002 -1.353709E+000  9.207704E+001 -1.348069E+000  9.208878E+001 -1.410161E+001 -1.746313E+002
1170.0000     -1.382863E+001 -1.750069E+002 -1.335563E+000  8.881255E+001 -1.329850E+000  8.883533E+001 -1.405163E+001 -1.774691E+002
1180.0000     -1.382183E+001 -1.776280E+002 -1.318437E+000  8.564909E+001 -1.312353E+000  8.563419E+001 -1.406037E+001  1.797813E+002
1190.0000     -1.385169E+001  1.799264E+002 -1.298586E+000  8.252789E+001 -1.294432E+000  8.253853E+001 -1.412733E+001  1.769813E+002
1200.0000     -1.392087E+001  1.776234E+002 -1.280360E+000  7.947890E+001 -1.274848E+000  7.950198E+001 -1.422872E+001  1.740236E+002
1210.0000     -1.401214E+001  1.755803E+002 -1.262213E+000  7.650180E+001 -1.255799E+000  7.651912E+001 -1.434822E+001  1.709790E+002
1220.0000     -1.414451E+001  1.736250E+002 -1.242678E+000  7.358491E+001 -1.235430E+000  7.359863E+001 -1.449011E+001  1.679132E+002
1230.0000     -1.431098E+001  1.717256E+002 -1.221756E+000  7.071452E+001 -1.214443E+000  7.073014E+001 -1.467309E+001  1.651600E+002
1240.0000     -1.452790E+001  1.698965E+002 -1.202297E+000  6.789303E+001 -1.194627E+000  6.790594E+001 -1.492850E+001  1.624252E+002
1250.0000     -1.480652E+001  1.681382E+002 -1.179880E+000  6.512482E+001 -1.172235E+000  6.513087E+001 -1.522406E+001  1.598407E+002
1260.0000     -1.511514E+001  1.664849E+002 -1.157857E+000  6.238559E+001 -1.148575E+000  6.239068E+001 -1.557094E+001  1.571965E+002
1270.0000     -1.544133E+001  1.647646E+002 -1.136647E+000  5.967846E+001 -1.129014E+000  5.968697E+001 -1.592848E+001  1.545748E+002
1280.0000     -1.580118E+001  1.630365E+002 -1.114609E+000  5.699393E+001 -1.107170E+000  5.700003E+001 -1.630433E+001  1.521208E+002
1290.0000     -1.620495E+001  1.612813E+002 -1.097956E+000  5.434762E+001 -1.088415E+000  5.436524E+001 -1.671490E+001  1.499615E+002
1300.0000     -1.665559E+001  1.595981E+002 -1.078385E+000  5.174803E+001 -1.070447E+000  5.176268E+001 -1.719176E+001  1.481642E+002
1310.0000     -1.716721E+001  1.580358E+002 -1.057980E+000  4.917762E+001 -1.050691E+000  4.918734E+001 -1.775252E+001  1.464446E+002
1320.0000     -1.771609E+001  1.567044E+002 -1.037561E+000  4.662308E+001 -1.030240E+000  4.663588E+001 -1.838290E+001  1.446477E+002
1330.0000     -1.829298E+001  1.557019E+002 -1.020085E+000  4.408756E+001 -1.012246E+000  4.409689E+001 -1.908356E+001  1.425623E+002
1340.0000     -1.886279E+001  1.550312E+002 -1.006425E+000  4.158574E+001 -9.960387E-001  4.159135E+001 -1.981213E+001  1.404222E+002
1350.0000     -1.948102E+001  1.549289E+002 -9.908018E-001  3.912487E+001 -9.802316E-001  3.911871E+001 -2.059956E+001  1.382418E+002
1360.0000     -2.017961E+001  1.552785E+002 -9.760987E-001  3.667058E+001 -9.657782E-001  3.667636E+001 -2.149944E+001  1.364894E+002
1370.0000     -2.095026E+001  1.562583E+002 -9.594905E-001  3.424948E+001 -9.496893E-001  3.425270E+001 -2.257273E+001  1.351280E+002
1380.0000     -2.183026E+001  1.578911E+002 -9.473300E-001  3.184294E+001 -9.356942E-001  3.184120E+001 -2.385347E+001  1.337978E+002
1390.0000     -2.277505E+001  1.604097E+002 -9.343702E-001  2.946105E+001 -9.261264E-001  2.944699E+001 -2.534986E+001  1.330910E+002
1400.0000     -2.374760E+001  1.637395E+002 -9.263915E-001  2.708551E+001 -9.180114E-001  2.707974E+001 -2.703471E+001  1.332653E+002
1410.0000     -2.477444E+001  1.682658E+002 -9.147211E-001  2.473938E+001 -9.080846E-001  2.473115E+001 -2.904959E+001  1.354885E+002
1420.0000     -2.584778E+001  1.741335E+002 -9.080580E-001  2.240887E+001 -9.003230E-001  2.240241E+001 -3.149885E+001  1.427779E+002
1430.0000     -2.686701E+001 -1.770669E+002 -9.013405E-001  2.009442E+001 -8.943637E-001  2.007365E+001 -3.450179E+001  1.602493E+002
1440.0000     -2.751801E+001 -1.653219E+002 -8.964629E-001  1.779417E+001 -8.886726E-001  1.777519E+001 -3.645841E+001 -1.647335E+002
1450.0000     -2.745828E+001 -1.524140E+002 -8.937143E-001  1.550698E+001 -8.859953E-001  1.549778E+001 -3.458588E+001 -1.279727E+002
1460.0000     -2.673907E+001 -1.411962E+002 -8.909011E-001  1.324354E+001 -8.826915E-001  1.322710E+001 -3.156253E+001 -1.081622E+002
1470.0000     -2.568093E+001 -1.328881E+002 -8.893888E-001  1.101025E+001 -8.815026E-001  1.099187E+001 -2.893793E+001 -9.893491E+001
1480.0000     -2.454280E+001 -1.271049E+002 -8.869933E-001  8.781694E+000 -8.792620E-001  8.752700E+000 -2.685698E+001 -9.454305E+001
1490.0000     -2.343859E+001 -1.230817E+002 -8.878487E-001  6.552015E+000 -8.822370E-001  6.528564E+000 -2.511497E+001 -9.248962E+001
1500.0000     -2.238505E+001 -1.202371E+002 -8.889444E-001  4.349968E+000 -8.824028E-001  4.330662E+000 -2.371068E+001 -9.182306E+001
1510.0000     -2.144278E+001 -1.184990E+002 -8.924603E-001  2.168882E+000 -8.859350E-001  2.142270E+000 -2.248517E+001 -9.185983E+001
1520.0000     -2.059763E+001 -1.173765E+002 -8.974979E-001  1.617157E-002 -8.912308E-001 -2.447099E-002 -2.143624E+001 -9.259740E+001
1530.0000     -1.985892E+001 -1.165637E+002 -9.009582E-001 -2.145382E+000 -8.954507E-001 -2.176325E+000 -2.055054E+001 -9.392853E+001
1540.0000     -1.918734E+001 -1.157849E+002 -9.088666E-001 -4.293936E+000 -9.010461E-001 -4.331665E+000 -1.974435E+001 -9.599562E+001
1550.0000     -1.854966E+001 -1.151140E+002 -9.169934E-001 -6.423267E+000 -9.088396E-001 -6.463076E+000 -1.898838E+001 -9.856210E+001
1560.0000     -1.793856E+001 -1.146273E+002 -9.259724E-001 -8.548515E+000 -9.165816E-001 -8.596817E+000 -1.826783E+001 -1.010737E+002
1570.0000     -1.733029E+001 -1.145847E+002 -9.350616E-001 -1.065644E+001 -9.287069E-001 -1.069971E+001 -1.756883E+001 -1.034165E+002
1580.0000     -1.676626E+001 -1.150882E+002 -9.460530E-001 -1.274109E+001 -9.403713E-001 -1.278173E+001 -1.691997E+001 -1.054016E+002
1590.0000     -1.625141E+001 -1.160206E+002 -9.589363E-001 -1.480765E+001 -9.502124E-001 -1.486107E+001 -1.633674E+001 -1.071002E+002
1600.0000     -1.576528E+001 -1.173174E+002 -9.714428E-001 -1.687137E+001 -9.611826E-001 -1.693103E+001 -1.580800E+001 -1.084891E+002
1610.0000     -1.532055E+001 -1.186612E+002 -9.811169E-001 -1.892809E+001 -9.757100E-001 -1.897606E+001 -1.534383E+001 -1.099032E+002
1620.0000     -1.490380E+001 -1.202031E+002 -9.959164E-001 -2.096495E+001 -9.906074E-001 -2.101312E+001 -1.492707E+001 -1.112356E+002
1630.0000     -1.452565E+001 -1.217596E+002 -1.009528E+000 -2.298736E+001 -1.002946E+000 -2.304473E+001 -1.455187E+001 -1.126296E+002
1640.0000     -1.418291E+001 -1.233190E+002 -1.021447E+000 -2.499611E+001 -1.017216E+000 -2.505627E+001 -1.420887E+001 -1.141027E+002
1650.0000     -1.387205E+001 -1.248144E+002 -1.037069E+000 -2.700495E+001 -1.032161E+000 -2.705141E+001 -1.391513E+001 -1.157613E+002
1660.0000     -1.358303E+001 -1.261030E+002 -1.049216E+000 -2.901970E+001 -1.048891E+000 -2.906671E+001 -1.363391E+001 -1.176817E+002
1670.0000     -1.331284E+001 -1.271940E+002 -1.065461E+000 -3.101930E+001 -1.063106E+000 -3.105474E+001 -1.336944E+001 -1.197775E+002
1680.0000     -1.305506E+001 -1.282791E+002 -1.084285E+000 -3.299591E+001 -1.080196E+000 -3.304660E+001 -1.311123E+001 -1.221063E+002
1690.0000     -1.280680E+001 -1.293144E+002 -1.099691E+000 -3.497363E+001 -1.095997E+000 -3.502779E+001 -1.284528E+001 -1.243324E+002
1700.0000     -1.257838E+001 -1.305913E+002 -1.114523E+000 -3.694091E+001 -1.113233E+000 -3.699233E+001 -1.259527E+001 -1.264019E+002
1710.0000     -1.237730E+001 -1.320175E+002 -1.132154E+000 -3.889140E+001 -1.130586E+000 -3.893848E+001 -1.235766E+001 -1.282821E+002
1720.0000     -1.219506E+001 -1.336328E+002 -1.149068E+000 -4.082952E+001 -1.144490E+000 -4.087961E+001 -1.215029E+001 -1.299275E+002
1730.0000     -1.203994E+001 -1.353576E+002 -1.161954E+000 -4.274623E+001 -1.159640E+000 -4.282151E+001 -1.198073E+001 -1.314807E+002
1740.0000     -1.190808E+001 -1.371641E+002 -1.173964E+000 -4.467988E+001 -1.172698E+000 -4.476739E+001 -1.183858E+001 -1.328949E+002
1750.0000     -1.178889E+001 -1.389754E+002 -1.185339E+000 -4.662257E+001 -1.187103E+000 -4.668555E+001 -1.172083E+001 -1.343688E+002
1760.0000     -1.169567E+001 -1.409319E+002 -1.200085E+000 -4.855690E+001 -1.198041E+000 -4.861525E+001 -1.162486E+001 -1.358174E+002
1770.0000     -1.161024E+001 -1.427580E+002 -1.212490E+000 -5.049910E+001 -1.210360E+000 -5.055095E+001 -1.155096E+001 -1.373543E+002
1780.0000     -1.154608E+001 -1.444757E+002 -1.223120E+000 -5.243909E+001 -1.222778E+000 -5.249662E+001 -1.148981E+001 -1.389878E+002
1790.0000     -1.147080E+001 -1.460877E+002 -1.236360E+000 -5.439688E+001 -1.234540E+000 -5.444207E+001 -1.143912E+001 -1.408036E+002
1800.0000     -1.141378E+001 -1.474985E+002 -1.248339E+000 -5.634004E+001 -1.245967E+000 -5.637349E+001 -1.138205E+001 -1.428327E+002
1810.0000     -1.135613E+001 -1.489575E+002 -1.257756E+000 -5.830017E+001 -1.255777E+000 -5.833860E+001 -1.133415E+001 -1.449764E+002
1820.0000     -1.131229E+001 -1.503941E+002 -1.268162E+000 -6.024337E+001 -1.265790E+000 -6.030679E+001 -1.127990E+001 -1.471297E+002
1830.0000     -1.126666E+001 -1.519544E+002 -1.280420E+000 -6.221897E+001 -1.280034E+000 -6.228682E+001 -1.121929E+001 -1.492066E+002
1840.0000     -1.122725E+001 -1.536326E+002 -1.290536E+000 -6.418299E+001 -1.291539E+000 -6.424126E+001 -1.116225E+001 -1.510782E+002
1850.0000     -1.119548E+001 -1.554527E+002 -1.303357E+000 -6.615866E+001 -1.303188E+000 -6.620322E+001 -1.109443E+001 -1.528267E+002
1860.0000     -1.117903E+001 -1.574349E+002 -1.313081E+000 -6.811607E+001 -1.313774E+000 -6.817359E+001 -1.104304E+001 -1.544037E+002
1870.0000     -1.116595E+001 -1.594961E+002 -1.323262E+000 -7.009846E+001 -1.325335E+000 -7.015333E+001 -1.100056E+001 -1.558201E+002
1880.0000     -1.116384E+001 -1.616928E+002 -1.335718E+000 -7.208705E+001 -1.336469E+000 -7.212924E+001 -1.097477E+001 -1.571516E+002
1890.0000     -1.118362E+001 -1.640188E+002 -1.347097E+000 -7.407460E+001 -1.347255E+000 -7.408992E+001 -1.097669E+001 -1.583806E+002
1900.0000     -1.121658E+001 -1.663020E+002 -1.354319E+000 -7.605270E+001 -1.351276E+000 -7.607113E+001 -1.100439E+001 -1.596215E+002
1910.0000     -1.127411E+001 -1.684321E+002 -1.358477E+000 -7.803651E+001 -1.357035E+000 -7.809182E+001 -1.106268E+001 -1.611016E+002
1920.0000     -1.134234E+001 -1.703853E+002 -1.364062E+000 -8.007996E+001 -1.361155E+000 -8.012314E+001 -1.114625E+001 -1.627371E+002
1930.0000     -1.141486E+001 -1.722155E+002 -1.370314E+000 -8.214355E+001 -1.367549E+000 -8.217206E+001 -1.123605E+001 -1.646430E+002
1940.0000     -1.150006E+001 -1.739865E+002 -1.377089E+000 -8.420934E+001 -1.372636E+000 -8.423381E+001 -1.132274E+001 -1.667461E+002
1950.0000     -1.157972E+001 -1.757767E+002 -1.382773E+000 -8.629110E+001 -1.377670E+000 -8.633746E+001 -1.139454E+001 -1.689065E+002
1960.0000     -1.166282E+001 -1.776151E+002 -1.388899E+000 -8.840285E+001 -1.384473E+000 -8.845228E+001 -1.145526E+001 -1.710542E+002
1970.0000     -1.174419E+001 -1.795372E+002 -1.395360E+000 -9.055339E+001 -1.392916E+000 -9.059216E+001 -1.150599E+001 -1.730955E+002
1980.0000     -1.184318E+001  1.783556E+002 -1.405496E+000 -9.270274E+001 -1.401132E+000 -9.273517E+001 -1.155622E+001 -1.750434E+002
1990.0000     -1.193325E+001  1.761219E+002 -1.414060E+000 -9.486679E+001 -1.409690E+000 -9.490981E+001 -1.160222E+001 -1.767789E+002
2000.0000     -1.203902E+001  1.736163E+002 -1.423044E+000 -9.705615E+001 -1.420259E+000 -9.709444E+001 -1.164955E+001 -1.785421E+002
2010.0000     -1.213607E+001  1.709422E+002 -1.433958E+000 -9.926180E+001 -1.433059E+000 -9.928833E+001 -1.168578E+001  1.798670E+002
2020.0000     -1.222875E+001  1.681617E+002 -1.447818E+000 -1.014765E+002 -1.445637E+000 -1.014972E+002 -1.173245E+001  1.784299E+002
