!Agilent Technologies,E5063A,MY54100569,A.02.04
!Date: Sat Apr 21 07:30:01 2018
!Data & Calibration Information:
!Freq	S11:SOLT1(ON)
# Hz S RI R 50
300000.000	-9.999245e-001	8.871718e-005
30298500.000	-9.996453e-001	1.080331e-002
60297000.000	-9.992603e-001	2.143965e-002
90295500.000	-9.989445e-001	3.178601e-002
120294000.000	-9.985067e-001	4.195908e-002
150292500.000	-9.978685e-001	5.231402e-002
180291000.000	-9.969923e-001	6.292634e-002
210289500.000	-9.961512e-001	7.354170e-002
240288000.000	-9.952214e-001	8.402763e-002
270286500.000	-9.943438e-001	9.441043e-002
300285000.000	-9.932905e-001	1.047258e-001
330283500.000	-9.919936e-001	1.150549e-001
360282000.000	-9.904500e-001	1.253680e-001
390280500.000	-9.891718e-001	1.353979e-001
420279000.000	-9.880243e-001	1.452604e-001
450277500.000	-9.866062e-001	1.553378e-001
480276000.000	-9.844698e-001	1.659751e-001
510274500.000	-9.824084e-001	1.765599e-001
540273000.000	-9.808346e-001	1.865721e-001
570271500.000	-9.792997e-001	1.962201e-001
600270000.000	-9.769675e-001	2.063171e-001
630268500.000	-9.742579e-001	2.167551e-001
660267000.000	-9.718666e-001	2.271368e-001
690265500.000	-9.696707e-001	2.371212e-001
720264000.000	-9.671297e-001	2.472736e-001
750262500.000	-9.642681e-001	2.574671e-001
780261000.000	-9.614991e-001	2.675064e-001
810259500.000	-9.588642e-001	2.769578e-001
840258000.000	-9.562489e-001	2.862796e-001
870256500.000	-9.534342e-001	2.956039e-001
900255000.000	-9.502332e-001	3.054220e-001
930253500.000	-9.464746e-001	3.156022e-001
960252000.000	-9.428451e-001	3.258580e-001
990250500.000	-9.396441e-001	3.354810e-001
1020249000.000	-9.365077e-001	3.448317e-001
1050247500.000	-9.324893e-001	3.544459e-001
1080246000.000	-9.281624e-001	3.645840e-001
1110244500.000	-9.245187e-001	3.741869e-001
1140243000.000	-9.215922e-001	3.828207e-001
1170241500.000	-9.179764e-001	3.912619e-001
1200240000.000	-9.135393e-001	4.008303e-001
1230238500.000	-9.089163e-001	4.109956e-001
1260237000.000	-9.049497e-001	4.206369e-001
1290235500.000	-9.008156e-001	4.293466e-001
1320234000.000	-8.964198e-001	4.381113e-001
1350232500.000	-8.916079e-001	4.473807e-001
1380231000.000	-8.869717e-001	4.566725e-001
1410229500.000	-8.822975e-001	4.655164e-001
1440228000.000	-8.778300e-001	4.740730e-001
1470226500.000	-8.732573e-001	4.829055e-001
1500225000.000	-8.683074e-001	4.919076e-001
1530223500.000	-8.627832e-001	5.011067e-001
1560222000.000	-8.574670e-001	5.099750e-001
1590220500.000	-8.523598e-001	5.185961e-001
1620219000.000	-8.470095e-001	5.269749e-001
1650217500.000	-8.410188e-001	5.358384e-001
1680216000.000	-8.351223e-001	5.447402e-001
1710214500.000	-8.297996e-001	5.532877e-001
1740213000.000	-8.245301e-001	5.610234e-001
1770211500.000	-8.186696e-001	5.690736e-001
1800210000.000	-8.124473e-001	5.776166e-001
1830208500.000	-8.064375e-001	5.863436e-001
1860207000.000	-8.002007e-001	5.944995e-001
1890205500.000	-7.937842e-001	6.026162e-001
1920204000.000	-7.874768e-001	6.107037e-001
1950202500.000	-7.815272e-001	6.189066e-001
1980201000.000	-7.752009e-001	6.266437e-001
2010199500.000	-7.687635e-001	6.342818e-001
2040198000.000	-7.627731e-001	6.415731e-001
2070196500.000	-7.571936e-001	6.486742e-001
2100195000.000	-7.506060e-001	6.558694e-001
2130193500.000	-7.432049e-001	6.636684e-001
2160192000.000	-7.360239e-001	6.715462e-001
2190190500.000	-7.299661e-001	6.789366e-001
2220189000.000	-7.232168e-001	6.861142e-001
2250187500.000	-7.158684e-001	6.935567e-001
2280186000.000	-7.082499e-001	7.011642e-001
2310184500.000	-7.021543e-001	7.080209e-001
2340183000.000	-6.960496e-001	7.142043e-001
2370181500.000	-6.893747e-001	7.206502e-001
2400180000.000	-6.812448e-001	7.278792e-001
2430178500.000	-6.736501e-001	7.350378e-001
2460177000.000	-6.662355e-001	7.414516e-001
2490175500.000	-6.590578e-001	7.477770e-001
2520174000.000	-6.510706e-001	7.549453e-001
2550172500.000	-6.430165e-001	7.619990e-001
2580171000.000	-6.349662e-001	7.684061e-001
2610169500.000	-6.277001e-001	7.743035e-001
2640168000.000	-6.204706e-001	7.805499e-001
2670166500.000	-6.124472e-001	7.869002e-001
2700165000.000	-6.035381e-001	7.934384e-001
2730163500.000	-5.949727e-001	7.994425e-001
2760162000.000	-5.874992e-001	8.052447e-001
2790160500.000	-5.799131e-001	8.107238e-001
2820159000.000	-5.715193e-001	8.167712e-001
2850157500.000	-5.628416e-001	8.226147e-001
2880156000.000	-5.548287e-001	8.283348e-001
2910154500.000	-5.470688e-001	8.332885e-001
2940153000.000	-5.386878e-001	8.386707e-001
2970151500.000	-5.296581e-001	8.444436e-001
3000150000.000	-5.208533e-001	8.499816e-001
3030148500.000	-5.119526e-001	8.544539e-001
3060147000.000	-5.031063e-001	8.591157e-001
3090145500.000	-4.943608e-001	8.643349e-001
3120144000.000	-4.863853e-001	8.695986e-001
3150142500.000	-4.778269e-001	8.739243e-001
3180141000.000	-4.690868e-001	8.780572e-001
3210139500.000	-4.603140e-001	8.827844e-001
3240138000.000	-4.521717e-001	8.879603e-001
3270136500.000	-4.430739e-001	8.921653e-001
3300135000.000	-4.333286e-001	8.960264e-001
3330133500.000	-4.235272e-001	9.003286e-001
3360132000.000	-4.152050e-001	9.047200e-001
3390130500.000	-4.068486e-001	9.086596e-001
3420129000.000	-3.979384e-001	9.122572e-001
3450127500.000	-3.882980e-001	9.162525e-001
3480126000.000	-3.792057e-001	9.201357e-001
3510124500.000	-3.701287e-001	9.240244e-001
3540123000.000	-3.609647e-001	9.274609e-001
3570121500.000	-3.513740e-001	9.312996e-001
3600120000.000	-3.421438e-001	9.342835e-001
3630118500.000	-3.330069e-001	9.374216e-001
3660117000.000	-3.242188e-001	9.405689e-001
3690115500.000	-3.149686e-001	9.445582e-001
3720114000.000	-3.053123e-001	9.472392e-001
3750112500.000	-2.950435e-001	9.499488e-001
3780111000.000	-2.852821e-001	9.528437e-001
3810109500.000	-2.766627e-001	9.567082e-001
3840108000.000	-2.684870e-001	9.591130e-001
3870106500.000	-2.593792e-001	9.610973e-001
3900105000.000	-2.490428e-001	9.630909e-001
3930103500.000	-2.389680e-001	9.664067e-001
3960102000.000	-2.295490e-001	9.689572e-001
3990100500.000	-2.205077e-001	9.711976e-001
4020099000.000	-2.109104e-001	9.729186e-001
4050097500.000	-2.011531e-001	9.752286e-001
4080096000.000	-1.916421e-001	9.768287e-001
4110094500.000	-1.827756e-001	9.788301e-001
4140093000.000	-1.735607e-001	9.805013e-001
4170091500.000	-1.638080e-001	9.820804e-001
4200090000.000	-1.530296e-001	9.829507e-001
4230088500.000	-1.427288e-001	9.844979e-001
4260087000.000	-1.334674e-001	9.868082e-001
4290085500.000	-1.257091e-001	9.885659e-001
4320084000.000	-1.166838e-001	9.885458e-001
4350082500.000	-1.060066e-001	9.887936e-001
4380081000.000	-9.503633e-002	9.903150e-001
4410079500.000	-8.640028e-002	9.920091e-001
4440078000.000	-7.826399e-002	9.923392e-001
4470076500.000	-6.857272e-002	9.918449e-001
4500075000.000	-5.714852e-002	9.922142e-001
4530073500.000	-4.711590e-002	9.932414e-001
4560072000.000	-3.883927e-002	9.936549e-001
4590070500.000	-3.020021e-002	9.934111e-001
4620069000.000	-1.973583e-002	9.934244e-001
4650067500.000	-9.418936e-003	9.934814e-001
4680066000.000	-5.362725e-004	9.938746e-001
4710064500.000	7.046213e-003	9.938424e-001
4740063000.000	1.587416e-002	9.938042e-001
4770061500.000	2.568440e-002	9.927334e-001
4800060000.000	3.608098e-002	9.920447e-001
4830058500.000	4.512151e-002	9.918662e-001
4860057000.000	5.276305e-002	9.923589e-001
4890055500.000	6.072721e-002	9.914979e-001
4920054000.000	7.073367e-002	9.900284e-001
4950052500.000	8.157901e-002	9.887861e-001
4980051000.000	9.122719e-002	9.888507e-001
5010049500.000	9.961690e-002	9.879225e-001
5040048000.000	1.091305e-001	9.860831e-001
5070046500.000	1.205928e-001	9.842316e-001
5100045000.000	1.312152e-001	9.838243e-001
5130043500.000	1.393076e-001	9.831887e-001
5160042000.000	1.467459e-001	9.822565e-001
5190040500.000	1.560418e-001	9.805258e-001
5220039000.000	1.665484e-001	9.789325e-001
5250037500.000	1.765896e-001	9.772708e-001
5280036000.000	1.849364e-001	9.758770e-001
5310034500.000	1.935060e-001	9.743600e-001
5340033000.000	2.029881e-001	9.723424e-001
5370031500.000	2.133400e-001	9.695953e-001
5400030000.000	2.229594e-001	9.672800e-001
5430028500.000	2.318941e-001	9.658302e-001
5460027000.000	2.402837e-001	9.640356e-001
5490025500.000	2.496674e-001	9.614157e-001
5520024000.000	2.586931e-001	9.585165e-001
5550022500.000	2.671475e-001	9.571885e-001
5580021000.000	2.738187e-001	9.556840e-001
5610019500.000	2.813311e-001	9.533309e-001
5640018000.000	2.901433e-001	9.496921e-001
5670016500.000	3.002201e-001	9.464370e-001
5700015000.000	3.093867e-001	9.433189e-001
5730013500.000	3.175840e-001	9.409737e-001
5760012000.000	3.256001e-001	9.379686e-001
5790010500.000	3.343708e-001	9.352987e-001
5820009000.000	3.424230e-001	9.316123e-001
5850007500.000	3.498325e-001	9.283276e-001
5880006000.000	3.573020e-001	9.250177e-001
5910004500.000	3.655984e-001	9.222813e-001
5940003000.000	3.745494e-001	9.180534e-001
5970001500.000	3.833262e-001	9.136835e-001
6000000000.000	3.919864e-001	9.095679e-001
