!Mini-Circuits Laboratory
!S-Parameters
!Model:ADP-2-1+
!Run/Lot/Date Code:MB58860/na/0904
!Fixture/SN/Due:90-1-20-120/62403/07.06.09 
!Connection:PORT<1>(SUM PORT) - pin<1>;  PORT<2>(OUT 1) - pin<3>;  PORT<3>(OUT 2) - pin<4>;  GROUND - pin<6>;  EXTERNALLY CONNECTED TOGETHER & ISOLATED - pin<2,5>
!AUTO PORT EXTENSION DONE: PORT<1>=135.1ps; PORT<2>=135.9ps; PORT<3>=135.9ps
!Agilent Technologies,E5071B,MY42302180,A.09.10
!Date: Tue Mar 31 08:33:29 2009

# Hz S dB R 50
300000	-2.639002e+001	1.346791e+002	-3.239667e+000	1.841664e+000	-3.233963e+000	1.921470e+000
	-3.240812e+000	1.913485e+000	-2.175631e+001	1.172292e+002	-2.555193e+001	-4.542892e+001
	-3.237291e+000	2.052960e+000	-2.570828e+001	-4.591170e+001	-2.177543e+001	1.168361e+002
400000	-2.765031e+001	1.398819e+002	-3.222344e+000	1.401703e+000	-3.211890e+000	1.507524e+000
	-3.226189e+000	1.560922e+000	-2.359965e+001	1.182923e+002	-2.699478e+001	-4.348658e+001
	-3.225163e+000	1.627933e+000	-2.707237e+001	-4.349561e+001	-2.361420e+001	1.179504e+002
500000	-2.831207e+001	1.423743e+002	-3.211631e+000	1.103648e+000	-3.210326e+000	1.128776e+000
	-3.213326e+000	1.297110e+000	-2.491026e+001	1.192050e+002	-2.803651e+001	-4.108479e+001
	-3.221993e+000	1.407741e+000	-2.813017e+001	-4.097476e+001	-2.493718e+001	1.188261e+002
1000000	-3.014398e+001	1.475082e+002	-3.194259e+000	5.304986e-001	-3.194857e+000	5.488768e-001
	-3.179766e+000	6.734422e-001	-2.852242e+001	1.204967e+002	-3.065755e+001	-3.208002e+001
	-3.187558e+000	6.424269e-001	-3.067115e+001	-3.187641e+001	-2.857288e+001	1.200226e+002
1500000	-3.119549e+001	1.496997e+002	-3.178835e+000	3.017459e-001	-3.186857e+000	2.829665e-001
	-3.168564e+000	3.356240e-001	-3.067757e+001	1.187341e+002	-3.183812e+001	-2.728670e+001
	-3.169615e+000	3.462274e-001	-3.183640e+001	-2.714443e+001	-3.070622e+001	1.179710e+002
2000000	-3.199193e+001	1.500642e+002	-3.165196e+000	6.303675e-003	-3.175516e+000	8.785721e-002
	-3.157492e+000	1.542476e-001	-3.215755e+001	1.162290e+002	-3.264290e+001	-2.338661e+001
	-3.161365e+000	1.434084e-001	-3.268188e+001	-2.288392e+001	-3.227023e+001	1.152435e+002
2500000	-3.245354e+001	1.502303e+002	-3.160600e+000	-7.960554e-002	-3.170039e+000	-6.428144e-002
	-3.156897e+000	7.535346e-003	-3.346460e+001	1.142740e+002	-3.323275e+001	-2.020883e+001
	-3.160635e+000	-2.615152e-002	-3.323532e+001	-2.017533e+001	-3.352987e+001	1.130014e+002
3000000	-3.288323e+001	1.501608e+002	-3.159907e+000	-2.002240e-001	-3.168139e+000	-1.788314e-001
	-3.159526e+000	-1.713750e-001	-3.450999e+001	1.121343e+002	-3.363457e+001	-1.722435e+001
	-3.158864e+000	-2.084812e-001	-3.362357e+001	-1.699674e+001	-3.459005e+001	1.107306e+002
3500000	-3.324188e+001	1.496183e+002	-3.157025e+000	-3.338465e-001	-3.164863e+000	-3.069342e-001
	-3.156697e+000	-3.030847e-001	-3.531639e+001	1.102644e+002	-3.389208e+001	-1.388362e+001
	-3.157529e+000	-3.249690e-001	-3.392766e+001	-1.400478e+001	-3.542781e+001	1.081957e+002
4000000	-3.354839e+001	1.497388e+002	-3.155506e+000	-4.516407e-001	-3.166554e+000	-4.318226e-001
	-3.156974e+000	-4.207255e-001	-3.613543e+001	1.084946e+002	-3.410254e+001	-1.179890e+001
	-3.157874e+000	-4.522197e-001	-3.415196e+001	-1.181768e+001	-3.624089e+001	1.064032e+002
4500000	-3.376299e+001	1.496178e+002	-3.154471e+000	-5.763687e-001	-3.164749e+000	-5.435577e-001
	-3.156864e+000	-5.146308e-001	-3.686898e+001	1.071861e+002	-3.425025e+001	-9.965794e+000
	-3.158153e+000	-5.516356e-001	-3.430851e+001	-9.957020e+000	-3.698764e+001	1.048362e+002
5000000	-3.399245e+001	1.493202e+002	-3.154746e+000	-6.758798e-001	-3.163648e+000	-6.595020e-001
	-3.156436e+000	-6.379028e-001	-3.753455e+001	1.058571e+002	-3.434762e+001	-7.953181e+000
	-3.158861e+000	-6.580767e-001	-3.440513e+001	-8.182778e+000	-3.764339e+001	1.032610e+002
5500000	-3.418367e+001	1.487743e+002	-3.158117e+000	-7.707314e-001	-3.166117e+000	-7.418475e-001
	-3.157297e+000	-7.275652e-001	-3.809466e+001	1.046916e+002	-3.440643e+001	-6.260975e+000
	-3.157836e+000	-7.326314e-001	-3.450269e+001	-6.233880e+000	-3.821688e+001	1.017104e+002
6000000	-3.431887e+001	1.481792e+002	-3.157712e+000	-8.565808e-001	-3.166819e+000	-8.278741e-001
	-3.155859e+000	-7.876443e-001	-3.865757e+001	1.033182e+002	-3.449687e+001	-4.787402e+000
	-3.159167e+000	-8.105926e-001	-3.451686e+001	-4.755856e+000	-3.874246e+001	1.002862e+002
6500000	-3.448701e+001	1.474933e+002	-3.157068e+000	-9.308581e-001	-3.166874e+000	-9.169891e-001
	-3.158644e+000	-8.950088e-001	-3.912769e+001	1.020640e+002	-3.452122e+001	-3.308275e+000
	-3.159361e+000	-9.131878e-001	-3.454580e+001	-3.345920e+000	-3.922432e+001	9.882971e+001
7000000	-3.457111e+001	1.467665e+002	-3.159357e+000	-1.037562e+000	-3.167501e+000	-1.010168e+000
	-3.161269e+000	-9.691419e-001	-3.957970e+001	1.004885e+002	-3.451033e+001	-2.115070e+000
	-3.161714e+000	-9.901769e-001	-3.448783e+001	-1.933796e+000	-3.966732e+001	9.739712e+001
7500000	-3.467316e+001	1.461133e+002	-3.159800e+000	-1.120924e+000	-3.170499e+000	-1.096283e+000
	-3.162092e+000	-1.070581e+000	-3.995926e+001	9.894498e+001	-3.448908e+001	-6.769409e-001
	-3.163828e+000	-1.084271e+000	-3.450026e+001	-8.577584e-001	-4.002117e+001	9.579243e+001
8000000	-3.477286e+001	1.455539e+002	-3.160239e+000	-1.192000e+000	-3.167291e+000	-1.178802e+000
	-3.163424e+000	-1.157325e+000	-4.031625e+001	9.752067e+001	-3.447188e+001	2.431473e-001
	-3.165475e+000	-1.168832e+000	-3.446953e+001	4.794135e-001	-4.042245e+001	9.423474e+001
8500000	-3.488771e+001	1.449284e+002	-3.160516e+000	-1.267528e+000	-3.170714e+000	-1.247269e+000
	-3.164062e+000	-1.226260e+000	-4.066903e+001	9.601042e+001	-3.446867e+001	1.553991e+000
	-3.165471e+000	-1.251969e+000	-3.446359e+001	1.358102e+000	-4.065791e+001	9.289782e+001
9000000	-3.499968e+001	1.444180e+002	-3.163954e+000	-1.339556e+000	-3.170330e+000	-1.315959e+000
	-3.166427e+000	-1.316852e+000	-4.096657e+001	9.525496e+001	-3.446057e+001	2.270654e+000
	-3.167783e+000	-1.338781e+000	-3.443609e+001	2.212444e+000	-4.107257e+001	9.169315e+001
9500000	-3.506862e+001	1.440059e+002	-3.165405e+000	-1.385084e+000	-3.173461e+000	-1.388050e+000
	-3.169334e+000	-1.413562e+000	-4.122642e+001	9.393351e+001	-3.443204e+001	3.210190e+000
	-3.168772e+000	-1.428033e+000	-3.440874e+001	3.101550e+000	-4.131695e+001	9.062795e+001
10000000	-3.515419e+001	1.433771e+002	-3.164092e+000	-1.444722e+000	-3.171888e+000	-1.440514e+000
	-3.168515e+000	-1.496550e+000	-4.146675e+001	9.309552e+001	-3.441344e+001	4.010196e+000
	-3.169159e+000	-1.501661e+000	-3.439121e+001	3.870707e+000	-4.156612e+001	8.913202e+001
10500000	-3.523711e+001	1.428472e+002	-3.166768e+000	-1.500136e+000	-3.172985e+000	-1.508553e+000
	-3.172438e+000	-1.615692e+000	-4.169128e+001	9.144300e+001	-3.437846e+001	4.819645e+000
	-3.171865e+000	-1.597457e+000	-3.437907e+001	4.984414e+000	-4.180465e+001	8.758614e+001
11000000	-3.530685e+001	1.424040e+002	-3.171955e+000	-1.551837e+000	-3.177997e+000	-1.555711e+000
	-3.168120e+000	-1.684185e+000	-4.191269e+001	9.116810e+001	-3.434107e+001	5.522847e+000
	-3.170078e+000	-1.685383e+000	-3.440505e+001	5.604435e+000	-4.204775e+001	8.701534e+001
11500000	-3.534658e+001	1.416695e+002	-3.166320e+000	-1.604397e+000	-3.181158e+000	-1.637009e+000
	-3.177486e+000	-1.767894e+000	-4.220115e+001	8.966400e+001	-3.433974e+001	6.107370e+000
	-3.173912e+000	-1.778008e+000	-3.427659e+001	6.002904e+000	-4.222307e+001	8.615287e+001
12000000	-3.538114e+001	1.411679e+002	-3.175458e+000	-1.700877e+000	-3.182517e+000	-1.662327e+000
	-3.176830e+000	-1.840044e+000	-4.245333e+001	8.922891e+001	-3.428895e+001	6.823797e+000
	-3.171555e+000	-1.839665e+000	-3.432926e+001	6.692891e+000	-4.247269e+001	8.449099e+001
12500000	-3.544531e+001	1.403987e+002	-3.170719e+000	-1.729528e+000	-3.180284e+000	-1.773896e+000
	-3.178579e+000	-1.949910e+000	-4.252098e+001	8.783485e+001	-3.426916e+001	7.660798e+000
	-3.178794e+000	-1.943260e+000	-3.429065e+001	7.804613e+000	-4.264309e+001	8.385867e+001
13000000	-3.544339e+001	1.395581e+002	-3.172892e+000	-1.851416e+000	-3.177475e+000	-1.793764e+000
	-3.170897e+000	-1.999303e+000	-4.282483e+001	8.686698e+001	-3.428411e+001	8.136750e+000
	-3.170703e+000	-1.985549e+000	-3.430067e+001	7.978911e+000	-4.280556e+001	8.290208e+001
13500000	-3.544992e+001	1.389629e+002	-3.178474e+000	-1.861758e+000	-3.182525e+000	-1.900881e+000
	-3.176317e+000	-2.108641e+000	-4.286467e+001	8.591016e+001	-3.426832e+001	8.995073e+000
	-3.176238e+000	-2.095244e+000	-3.420414e+001	8.911510e+000	-4.299682e+001	8.196300e+001
14000000	-3.547764e+001	1.381833e+002	-3.175839e+000	-1.957969e+000	-3.182168e+000	-1.981167e+000
	-3.175113e+000	-2.132952e+000	-4.308110e+001	8.437301e+001	-3.422588e+001	9.408974e+000
	-3.177000e+000	-2.133394e+000	-3.419864e+001	9.364303e+000	-4.312238e+001	8.019046e+001
14500000	-3.550665e+001	1.375779e+002	-3.180729e+000	-2.048960e+000	-3.179995e+000	-2.059488e+000
	-3.176596e+000	-2.204393e+000	-4.317268e+001	8.354081e+001	-3.418863e+001	9.891192e+000
	-3.175741e+000	-2.183321e+000	-3.420028e+001	9.929705e+000	-4.327593e+001	7.935426e+001
15000000	-3.548836e+001	1.368052e+002	-3.177517e+000	-2.129833e+000	-3.183947e+000	-2.145956e+000
	-3.177752e+000	-2.271424e+000	-4.345058e+001	8.268032e+001	-3.415871e+001	1.057195e+001
	-3.177865e+000	-2.246826e+000	-3.415373e+001	1.039542e+001	-4.343322e+001	7.854048e+001
15500000	-3.548822e+001	1.362792e+002	-3.180069e+000	-2.233259e+000	-3.184140e+000	-2.230224e+000
	-3.179412e+000	-2.317879e+000	-4.355311e+001	8.143800e+001	-3.415985e+001	1.104582e+001
	-3.179903e+000	-2.306958e+000	-3.413788e+001	1.114225e+001	-4.357665e+001	7.775570e+001
16000000	-3.551273e+001	1.356377e+002	-3.179015e+000	-2.318073e+000	-3.184812e+000	-2.317387e+000
	-3.179586e+000	-2.380346e+000	-4.365261e+001	8.011554e+001	-3.413080e+001	1.167702e+001
	-3.179183e+000	-2.362239e+000	-3.405880e+001	1.138226e+001	-4.370740e+001	7.698064e+001
16500000	-3.553378e+001	1.351719e+002	-3.181325e+000	-2.386729e+000	-3.185019e+000	-2.380329e+000
	-3.180126e+000	-2.438853e+000	-4.374229e+001	7.931938e+001	-3.407382e+001	1.187691e+001
	-3.179785e+000	-2.443914e+000	-3.403984e+001	1.206842e+001	-4.381740e+001	7.554190e+001
17000000	-3.551727e+001	1.343505e+002	-3.182269e+000	-2.473875e+000	-3.186079e+000	-2.460548e+000
	-3.181941e+000	-2.499442e+000	-4.385276e+001	7.835050e+001	-3.403016e+001	1.258834e+001
	-3.180870e+000	-2.502409e+000	-3.401311e+001	1.250116e+001	-4.388256e+001	7.457500e+001
17500000	-3.551748e+001	1.338786e+002	-3.181482e+000	-2.549813e+000	-3.186518e+000	-2.539222e+000
	-3.182726e+000	-2.568529e+000	-4.395975e+001	7.767130e+001	-3.401472e+001	1.302572e+001
	-3.181996e+000	-2.570026e+000	-3.399334e+001	1.301012e+001	-4.399008e+001	7.356315e+001
18000000	-3.556798e+001	1.331292e+002	-3.182752e+000	-2.624472e+000	-3.187234e+000	-2.619532e+000
	-3.183340e+000	-2.637603e+000	-4.400300e+001	7.700120e+001	-3.398526e+001	1.344721e+001
	-3.182037e+000	-2.637829e+000	-3.395753e+001	1.358666e+001	-4.407839e+001	7.273343e+001
18500000	-3.553362e+001	1.325676e+002	-3.182386e+000	-2.693584e+000	-3.186170e+000	-2.696841e+000
	-3.184277e+000	-2.703102e+000	-4.416396e+001	7.530859e+001	-3.394432e+001	1.401475e+001
	-3.182963e+000	-2.701154e+000	-3.391887e+001	1.376972e+001	-4.418673e+001	7.170613e+001
19000000	-3.554117e+001	1.318421e+002	-3.183788e+000	-2.764264e+000	-3.187876e+000	-2.756956e+000
	-3.184815e+000	-2.773379e+000	-4.422015e+001	7.408912e+001	-3.390920e+001	1.444822e+001
	-3.182831e+000	-2.774584e+000	-3.387399e+001	1.427756e+001	-4.421934e+001	7.110374e+001
19500000	-3.555700e+001	1.314474e+002	-3.183710e+000	-2.836759e+000	-3.187628e+000	-2.837601e+000
	-3.186500e+000	-2.835334e+000	-4.431413e+001	7.342584e+001	-3.390110e+001	1.491162e+001
	-3.183383e+000	-2.839224e+000	-3.384693e+001	1.471098e+001	-4.431792e+001	7.012336e+001
20000000	-3.554366e+001	1.307485e+002	-3.184630e+000	-2.905558e+000	-3.187984e+000	-2.905730e+000
	-3.186925e+000	-2.897913e+000	-4.436408e+001	7.244162e+001	-3.386126e+001	1.527775e+001
	-3.184621e+000	-2.898526e+000	-3.380981e+001	1.501937e+001	-4.436196e+001	6.954034e+001
20500000	-3.554704e+001	1.302182e+002	-3.184720e+000	-2.975916e+000	-3.189173e+000	-2.973763e+000
	-3.186946e+000	-2.969750e+000	-4.445490e+001	7.141161e+001	-3.381902e+001	1.568858e+001
	-3.184504e+000	-2.974039e+000	-3.377145e+001	1.543665e+001	-4.437888e+001	6.845286e+001
21000000	-3.553551e+001	1.296598e+002	-3.185310e+000	-3.048225e+000	-3.189801e+000	-3.044745e+000
	-3.188676e+000	-3.033392e+000	-4.452171e+001	7.049734e+001	-3.379390e+001	1.602807e+001
	-3.185053e+000	-3.042693e+000	-3.374990e+001	1.585797e+001	-4.448031e+001	6.734736e+001
21500000	-3.549565e+001	1.291138e+002	-3.186170e+000	-3.113771e+000	-3.189297e+000	-3.120042e+000
	-3.188799e+000	-3.107714e+000	-4.460995e+001	6.936359e+001	-3.376358e+001	1.635052e+001
	-3.185915e+000	-3.113302e+000	-3.370817e+001	1.631828e+001	-4.456137e+001	6.672687e+001
22000000	-3.552303e+001	1.285029e+002	-3.186214e+000	-3.187923e+000	-3.188944e+000	-3.186425e+000
	-3.189359e+000	-3.178007e+000	-4.463080e+001	6.873868e+001	-3.371736e+001	1.691824e+001
	-3.186134e+000	-3.179486e+000	-3.368958e+001	1.663193e+001	-4.456111e+001	6.566308e+001
22500000	-3.549744e+001	1.277720e+002	-3.187060e+000	-3.258211e+000	-3.190701e+000	-3.258092e+000
	-3.188913e+000	-3.246218e+000	-4.473576e+001	6.808392e+001	-3.371218e+001	1.725918e+001
	-3.186806e+000	-3.250003e+000	-3.366181e+001	1.695160e+001	-4.465602e+001	6.512430e+001
23000000	-3.550557e+001	1.271986e+002	-3.187354e+000	-3.326200e+000	-3.190171e+000	-3.323664e+000
	-3.191205e+000	-3.316531e+000	-4.480289e+001	6.690934e+001	-3.366873e+001	1.755690e+001
	-3.188306e+000	-3.321367e+000	-3.361492e+001	1.735462e+001	-4.467430e+001	6.414118e+001
23500000	-3.544877e+001	1.267625e+002	-3.188571e+000	-3.389656e+000	-3.190589e+000	-3.394685e+000
	-3.192019e+000	-3.381020e+000	-4.474807e+001	6.648260e+001	-3.361739e+001	1.801277e+001
	-3.188641e+000	-3.381772e+000	-3.358447e+001	1.776119e+001	-4.468460e+001	6.334487e+001
24000000	-3.543544e+001	1.262532e+002	-3.188957e+000	-3.461926e+000	-3.191917e+000	-3.463497e+000
	-3.191176e+000	-3.455038e+000	-4.489782e+001	6.546913e+001	-3.359386e+001	1.837973e+001
	-3.188437e+000	-3.463764e+000	-3.357091e+001	1.808017e+001	-4.471589e+001	6.280764e+001
24500000	-3.543707e+001	1.256935e+002	-3.188509e+000	-3.526084e+000	-3.192428e+000	-3.528354e+000
	-3.192318e+000	-3.527808e+000	-4.490365e+001	6.460831e+001	-3.356433e+001	1.875390e+001
	-3.189193e+000	-3.528314e+000	-3.351925e+001	1.856011e+001	-4.475903e+001	6.202347e+001
25000000	-3.540968e+001	1.249805e+002	-3.189936e+000	-3.598092e+000	-3.191773e+000	-3.601626e+000
	-3.193015e+000	-3.592162e+000	-4.495645e+001	6.380045e+001	-3.350554e+001	1.889118e+001
	-3.190335e+000	-3.595889e+000	-3.348763e+001	1.879252e+001	-4.479898e+001	6.063493e+001
25500000	-3.537944e+001	1.244821e+002	-3.189821e+000	-3.675571e+000	-3.192316e+000	-3.663752e+000
	-3.192335e+000	-3.657815e+000	-4.508734e+001	6.289329e+001	-3.350969e+001	1.934246e+001
	-3.189418e+000	-3.661997e+000	-3.349310e+001	1.906261e+001	-4.480801e+001	6.036846e+001
26000000	-3.533682e+001	1.238455e+002	-3.190367e+000	-3.729512e+000	-3.192906e+000	-3.731558e+000
	-3.192991e+000	-3.722790e+000	-4.500101e+001	6.218170e+001	-3.346218e+001	1.983539e+001
	-3.189594e+000	-3.726685e+000	-3.342713e+001	1.948645e+001	-4.481395e+001	5.980850e+001
26500000	-3.532198e+001	1.232336e+002	-3.191263e+000	-3.795183e+000	-3.192843e+000	-3.801704e+000
	-3.193386e+000	-3.794641e+000	-4.502998e+001	6.113798e+001	-3.339931e+001	2.003898e+001
	-3.191716e+000	-3.798333e+000	-3.340577e+001	1.982296e+001	-4.478662e+001	5.884716e+001
27000000	-3.532210e+001	1.225499e+002	-3.190543e+000	-3.870483e+000	-3.193322e+000	-3.872716e+000
	-3.193649e+000	-3.860960e+000	-4.511329e+001	6.050477e+001	-3.339181e+001	2.047750e+001
	-3.191519e+000	-3.871784e+000	-3.337838e+001	2.012524e+001	-4.487371e+001	5.790247e+001
27500000	-3.525852e+001	1.221018e+002	-3.192176e+000	-3.941284e+000	-3.194005e+000	-3.940022e+000
	-3.194257e+000	-3.931333e+000	-4.516550e+001	6.030854e+001	-3.335646e+001	2.070539e+001
	-3.192006e+000	-3.937660e+000	-3.335532e+001	2.051610e+001	-4.492860e+001	5.734903e+001
28000000	-3.526404e+001	1.215462e+002	-3.191081e+000	-4.010976e+000	-3.194072e+000	-4.005914e+000
	-3.194719e+000	-3.996188e+000	-4.508736e+001	5.888895e+001	-3.329841e+001	2.084908e+001
	-3.193058e+000	-4.006991e+000	-3.330532e+001	2.073259e+001	-4.489040e+001	5.656469e+001
28500000	-3.521454e+001	1.208708e+002	-3.191725e+000	-4.077887e+000	-3.194241e+000	-4.074443e+000
	-3.195711e+000	-4.060508e+000	-4.517093e+001	5.844180e+001	-3.327215e+001	2.142412e+001
	-3.194090e+000	-4.069423e+000	-3.330375e+001	2.096499e+001	-4.489800e+001	5.604879e+001
29000000	-3.518251e+001	1.206596e+002	-3.193872e+000	-4.147534e+000	-3.195705e+000	-4.140897e+000
	-3.195609e+000	-4.134786e+000	-4.524232e+001	5.723742e+001	-3.323050e+001	2.160661e+001
	-3.193355e+000	-4.143919e+000	-3.324286e+001	2.128371e+001	-4.488324e+001	5.528261e+001
29500000	-3.517942e+001	1.199382e+002	-3.193788e+000	-4.211904e+000	-3.195186e+000	-4.203553e+000
	-3.196237e+000	-4.204196e+000	-4.517338e+001	5.683626e+001	-3.318610e+001	2.205457e+001
	-3.193740e+000	-4.214567e+000	-3.322170e+001	2.178917e+001	-4.479263e+001	5.434790e+001
30000000	-3.510832e+001	1.195179e+002	-3.195094e+000	-4.274789e+000	-3.196651e+000	-4.275125e+000
	-3.196189e+000	-4.275477e+000	-4.520950e+001	5.652033e+001	-3.317763e+001	2.232074e+001
	-3.194725e+000	-4.276688e+000	-3.319147e+001	2.203094e+001	-4.490169e+001	5.428963e+001
30500000	-3.507881e+001	1.189559e+002	-3.195199e+000	-4.352221e+000	-3.196368e+000	-4.342892e+000
	-3.196851e+000	-4.335298e+000	-4.523981e+001	5.582870e+001	-3.310234e+001	2.252008e+001
	-3.196152e+000	-4.344095e+000	-3.316833e+001	2.237879e+001	-4.479841e+001	5.299648e+001
31000000	-3.506949e+001	1.184674e+002	-3.196312e+000	-4.419586e+000	-3.197563e+000	-4.414511e+000
	-3.197312e+000	-4.408114e+000	-4.526659e+001	5.519333e+001	-3.308706e+001	2.273932e+001
	-3.196149e+000	-4.414731e+000	-3.312756e+001	2.258734e+001	-4.483326e+001	5.266358e+001
31500000	-3.503402e+001	1.178976e+002	-3.196828e+000	-4.491853e+000	-3.198199e+000	-4.483812e+000
	-3.197660e+000	-4.472130e+000	-4.531026e+001	5.407167e+001	-3.307377e+001	2.315506e+001
	-3.196444e+000	-4.480006e+000	-3.310243e+001	2.288585e+001	-4.491058e+001	5.247929e+001
32000000	-3.498248e+001	1.174922e+002	-3.196328e+000	-4.562033e+000	-3.198283e+000	-4.551599e+000
	-3.198803e+000	-4.539579e+000	-4.528304e+001	5.346672e+001	-3.303279e+001	2.351620e+001
	-3.196559e+000	-4.548987e+000	-3.305904e+001	2.319828e+001	-4.490241e+001	5.160981e+001
32500000	-3.495366e+001	1.170794e+002	-3.196967e+000	-4.616241e+000	-3.197398e+000	-4.620660e+000
	-3.198474e+000	-4.608809e+000	-4.526963e+001	5.287489e+001	-3.300221e+001	2.359300e+001
	-3.197018e+000	-4.618635e+000	-3.303895e+001	2.346391e+001	-4.490798e+001	5.060538e+001
33000000	-3.494168e+001	1.163951e+002	-3.197333e+000	-4.691288e+000	-3.199860e+000	-4.685112e+000
	-3.199346e+000	-4.675437e+000	-4.525941e+001	5.230046e+001	-3.296250e+001	2.400549e+001
	-3.197971e+000	-4.680305e+000	-3.299578e+001	2.383112e+001	-4.486219e+001	5.063421e+001
33500000	-3.486552e+001	1.159994e+002	-3.198445e+000	-4.752227e+000	-3.198947e+000	-4.752309e+000
	-3.199474e+000	-4.743090e+000	-4.524031e+001	5.175773e+001	-3.293417e+001	2.417825e+001
	-3.198030e+000	-4.751303e+000	-3.297192e+001	2.406470e+001	-4.483580e+001	4.924238e+001
34000000	-3.482584e+001	1.155848e+002	-3.200082e+000	-4.829584e+000	-3.199047e+000	-4.820085e+000
	-3.199820e+000	-4.819533e+000	-4.526082e+001	5.154498e+001	-3.289880e+001	2.447004e+001
	-3.198088e+000	-4.818154e+000	-3.293792e+001	2.447435e+001	-4.487820e+001	4.934015e+001
