! CEL								
! CE3520K3									
! N-channel HJ-FET									
! Vds = 3 V Id = 20 mA									
# Hz S  MA   R 50									
!	f	S11	S21	S12	S22				
!	Hz	MAG	ANG	MAG	ANG	MAG	ANG	MAG	ANG
2000000000 0.9775576 -29.812963 5.4706402 147.96037 0.022909811 69.076263 0.6346395 -20.748772
2100000000 0.9739688 -31.342642 5.4568486 146.32918 0.023773678 67.788261 0.63287133 -21.724539
2200000000 0.97096688 -32.836208 5.4521732 144.77156 0.024971621 66.869019 0.63148665 -22.78651
2300000000 0.96866906 -34.302315 5.4402161 143.21301 0.026039358 65.928482 0.62941563 -23.822575
2400000000 0.96521693 -35.717022 5.4303203 141.64388 0.027211884 65.22744 0.62765837 -24.932423
2500000000 0.9616999 -37.206928 5.4183021 140.09843 0.028256407 63.928688 0.62640679 -25.926733
2600000000 0.95841706 -38.742088 5.4087801 138.53983 0.029349921 63.036411 0.62433398 -26.94796
2700000000 0.95460826 -40.185944 5.3993268 136.96657 0.03025265 61.846447 0.62210184 -28.034286
2800000000 0.95051676 -41.645073 5.3858423 135.44444 0.03136934 60.867416 0.62077272 -29.116493
2900000000 0.94645911 -43.135529 5.375144 133.85361 0.032329623 59.971058 0.61838102 -30.088644
3000000000 0.94265646 -44.654675 5.3622646 132.32957 0.033417229 59.0075 0.61663097 -31.08926
3100000000 0.93902278 -46.112904 5.3519688 130.77296 0.034404568 58.167763 0.61408037 -32.156487
3200000000 0.93425375 -47.607513 5.3367553 129.24796 0.035386931 57.331715 0.61285752 -33.142529
3300000000 0.92920023 -49.045307 5.3222828 127.70683 0.036404919 56.064102 0.6111781 -34.190571
3400000000 0.92547649 -50.479202 5.3089094 126.16944 0.037192058 55.363064 0.6084379 -35.275925
3500000000 0.92154151 -52.005325 5.2967949 124.61496 0.038227729 54.500774 0.605528 -36.260651
3600000000 0.91725224 -53.468727 5.2847581 123.09641 0.039250717 53.440372 0.60349053 -37.331963
3700000000 0.91206068 -54.905418 5.2674861 121.57884 0.04014926 52.352005 0.60181504 -38.35923
3800000000 0.90633672 -56.386646 5.2542634 120.03868 0.04105949 51.625687 0.59957486 -39.391712
3900000000 0.90252423 -57.872051 5.2402353 118.53934 0.042005289 50.390804 0.59662569 -40.392822
4000000000 0.89833826 -59.322536 5.224772 116.99339 0.042951655 49.752693 0.59372133 -41.404472
4100000000 0.89311856 -60.807037 5.2101417 115.47871 0.043736052 48.588169 0.59145176 -42.450089
4200000000 0.88846743 -62.261669 5.1967473 113.9932 0.044751789 47.868855 0.58929777 -43.458855
4300000000 0.88393968 -63.689724 5.1828232 112.47723 0.045493439 46.963383 0.5867238 -44.557674
4400000000 0.87896371 -65.153099 5.1659985 110.95425 0.046332914 45.792145 0.58369607 -45.562199
4500000000 0.87405103 -66.606255 5.1520038 109.46485 0.047327343 44.949871 0.58143729 -46.603767
4600000000 0.86840945 -68.118111 5.1372595 107.94567 0.048190355 44.102116 0.57876354 -47.609493
4700000000 0.86382854 -69.582596 5.1224351 106.43612 0.048864298 43.117977 0.57580543 -48.668018
4800000000 0.85857779 -71.031563 5.1058884 104.9674 0.04974116 42.145252 0.57352394 -49.674553
4900000000 0.85357547 -72.524925 5.0927486 103.46364 0.050473936 41.209263 0.57061481 -50.701832
5000000000 0.84793705 -74.011101 5.0768137 101.9678 0.051266961 40.142994 0.56806719 -51.741695
5100000000 0.84378254 -75.456055 5.0600076 100.48441 0.052157771 39.335636 0.56478739 -52.753922
5200000000 0.83795083 -76.921646 5.0431027 98.99913 0.052980021 38.492069 0.56254756 -53.796082
5300000000 0.83264697 -78.429207 5.0278163 97.520088 0.05354654 37.613369 0.55948371 -54.821316
5400000000 0.82765454 -79.901436 5.0113134 96.040321 0.054363716 36.738617 0.55667156 -55.829617
5500000000 0.82172328 -81.382301 4.9943161 94.566719 0.055009089 35.743725 0.55397606 -56.855572
5600000000 0.81656086 -82.840614 4.9773602 93.080032 0.055813104 34.913231 0.55093277 -57.867397
5700000000 0.81075233 -84.330994 4.9606361 91.583138 0.05649453 33.701038 0.54797679 -58.939964
5800000000 0.80508125 -85.850517 4.9432635 90.110359 0.057059769 32.959557 0.5449754 -59.912979
5900000000 0.79971558 -87.319267 4.9265895 88.636436 0.057900403 31.946417 0.54178059 -60.904495
6000000000 0.79350418 -88.810928 4.9071741 87.152016 0.058344994 30.82251 0.53838986 -61.926903
6100000000 0.78742403 -90.285721 4.8886328 85.663246 0.058816005 30.012825 0.53507584 -62.992378
6200000000 0.78076398 -91.748367 4.8678365 84.191475 0.059257552 29.128099 0.53188127 -63.932278
6300000000 0.77436632 -93.14859 4.8461881 82.722427 0.059839778 28.275732 0.52833533 -64.9338
6400000000 0.76795036 -94.480766 4.8215089 81.262276 0.060123593 27.374464 0.5248403 -65.868637
6500000000 0.76212507 -95.824341 4.7984791 79.848129 0.060639579 26.71867 0.52175242 -66.783379
6600000000 0.75663388 -97.153214 4.7747326 78.466713 0.060987372 26.131538 0.5188992 -67.659225
6700000000 0.75181562 -98.489967 4.7521491 77.110054 0.061453622 25.600246 0.51683295 -68.494415
6800000000 0.74749053 -99.861786 4.7355475 75.770294 0.062171314 24.947308 0.51512641 -69.459602
6900000000 0.74364012 -101.29559 4.7186866 74.422203 0.062799662 24.071871 0.51320404 -70.426849
7000000000 0.73936927 -102.70441 4.7024074 73.042442 0.063374028 23.487074 0.51090819 -71.394035
7100000000 0.73502135 -104.15434 4.6875525 71.666878 0.064215094 22.713331 0.50924033 -72.400658
7200000000 0.73003757 -105.59891 4.6710777 70.279968 0.064608611 22.001232 0.50679928 -73.437202
7300000000 0.72593641 -107.06381 4.6562743 68.897072 0.065226287 21.139387 0.50461292 -74.477303
7400000000 0.72115207 -108.49696 4.6404619 67.515381 0.065850668 20.141642 0.50198847 -75.466255
7500000000 0.71685791 -109.9791 4.6241713 66.12648 0.066423804 19.446749 0.49983007 -76.47908
7600000000 0.71251553 -111.39988 4.6076632 64.729263 0.066905275 18.790068 0.49691892 -77.557449
7700000000 0.70838708 -112.8972 4.5927167 63.3554 0.067441098 17.743902 0.49432117 -78.590324
7800000000 0.70304757 -114.40939 4.5757256 61.939487 0.06815961 17.101639 0.49156216 -79.553688
7900000000 0.69791275 -115.91872 4.5588193 60.55135 0.068542458 16.213629 0.4892495 -80.494713
8000000000 0.6926285 -117.39565 4.5414195 59.160915 0.068831034 15.502539 0.48662537 -81.521713
8100000000 0.68749559 -118.78456 4.5220461 57.803497 0.069220699 14.747891 0.48411751 -82.512497
8200000000 0.68215168 -120.25819 4.5051293 56.419697 0.06948445 13.770294 0.48186585 -83.476357
8300000000 0.67698807 -121.65624 4.4866276 55.06863 0.06997066 13.020535 0.47985217 -84.480782
8400000000 0.67206627 -123.08207 4.4676805 53.718533 0.070423797 12.328135 0.47783205 -85.44883
8500000000 0.66686332 -124.50479 4.4502759 52.351032 0.070491493 11.423013 0.47497764 -86.424622
8600000000 0.66206932 -125.91756 4.4323244 50.990479 0.070896626 10.505071 0.47283176 -87.396202
8700000000 0.65692222 -127.3186 4.4144726 49.646458 0.071387634 9.952879 0.47085714 -88.400795
8800000000 0.65180105 -128.7565 4.3970799 48.296108 0.071638688 9.0320683 0.46835181 -89.374641
8900000000 0.64629161 -130.16014 4.3771477 46.945644 0.071763806 8.3460846 0.465902 -90.292
9000000000 0.6413545 -131.47253 4.3558631 45.644386 0.071855344 7.7126789 0.46369883 -91.161011
9100000000 0.63645959 -132.79601 4.3375421 44.32637 0.072015718 6.9758768 0.46150923 -92.141182
9200000000 0.63157171 -134.04965 4.3182621 43.051563 0.072220236 6.2517338 0.45993659 -93.056686
9300000000 0.62779379 -135.40013 4.3005562 41.766464 0.072331108 5.7607651 0.45780656 -93.970261
9400000000 0.62382478 -136.69734 4.2847323 40.483425 0.072518021 5.1989465 0.45653692 -94.871361
9500000000 0.61980557 -137.97044 4.2666197 39.218555 0.072758697 4.6331658 0.45513904 -95.830124
9600000000 0.61603588 -139.30745 4.2521873 37.973232 0.0731185 4.1575003 0.45415637 -96.728966
9700000000 0.61274117 -140.57155 4.2362127 36.721176 0.07336583 3.5293765 0.45320186 -97.673363
9800000000 0.61029923 -141.86847 4.2235112 35.470211 0.073803648 3.0144799 0.45196906 -98.64624
9900000000 0.60714424 -143.19868 4.2103143 34.206875 0.074114025 2.5706642 0.45039523 -99.683746
10000000000 0.60446632 -144.60385 4.1986732 32.921391 0.074515924 1.7249032 0.44914603 -100.68513
10100000000 0.60141003 -145.9442 4.1840301 31.648209 0.074725002 1.1134773 0.44806507 -101.65616
10200000000 0.59801078 -147.36766 4.1711426 30.369995 0.075208731 0.42693484 0.44737959 -102.58797
10300000000 0.59468627 -148.66745 4.1575742 29.087017 0.075460553 -0.10411612 0.44597548 -103.66875
10400000000 0.59152019 -150.05098 4.1434779 27.837004 0.075817935 -0.58742708 0.44487527 -104.59854
10500000000 0.58798677 -151.38397 4.1318994 26.584547 0.076078035 -1.3317801 0.44387054 -105.60519
10600000000 0.5848496 -152.73361 4.118084 25.314564 0.076534651 -1.8260101 0.44294801 -106.62841
10700000000 0.58212066 -154.04326 4.1052194 24.071697 0.076628134 -2.6459024 0.44182059 -107.62415
10800000000 0.57923746 -155.40164 4.0943146 22.804848 0.076963253 -3.2062211 0.44080079 -108.64696
10900000000 0.576415 -156.71915 4.0825109 21.560766 0.077279635 -3.8789072 0.43988854 -109.6302
11000000000 0.57358241 -158.04555 4.0705352 20.299807 0.077450074 -4.3808541 0.43866661 -110.66177
11100000000 0.57039231 -159.34958 4.0595899 19.052879 0.07785634 -5.06917 0.43833545 -111.62574
11200000000 0.56794912 -160.66457 4.047369 17.797163 0.078169182 -5.7259541 0.43703231 -112.55965
11300000000 0.56526327 -161.99329 4.0375376 16.550512 0.078487448 -6.3218389 0.43590349 -113.59957
11400000000 0.56320822 -163.28104 4.0262957 15.320017 0.078761101 -6.8233533 0.43525234 -114.60476
11500000000 0.56093627 -164.62877 4.0138025 14.059475 0.078741506 -7.4880996 0.43416891 -115.53694
11600000000 0.5584681 -165.95261 4.0036197 12.809319 0.079134323 -8.0571127 0.43370005 -116.52654
11700000000 0.55590898 -167.24385 3.9927824 11.574232 0.079422995 -8.6282644 0.43319392 -117.5045
11800000000 0.5534063 -168.54236 3.9816341 10.345472 0.079708181 -9.2812471 0.4324826 -118.48579
11900000000 0.55116141 -169.89937 3.9725034 9.110733 0.079874784 -9.8480453 0.43232349 -119.40092
12000000000 0.54910064 -171.17256 3.9633982 7.8729634 0.080114923 -10.333414 0.43176398 -120.48277
12100000000 0.54735559 -172.44199 3.9543338 6.650208 0.080642641 -10.925606 0.4314875 -121.43795
12200000000 0.5452742 -173.75546 3.944185 5.4419255 0.081017055 -11.495409 0.43145603 -122.38864
12300000000 0.54422843 -175.0696 3.9362433 4.222034 0.081471443 -12.137546 0.43088335 -123.41585
12400000000 0.54238826 -176.42715 3.9291615 2.9935794 0.081848279 -12.856175 0.43046018 -124.50231
12500000000 0.54068035 -177.78999 3.9221649 1.7663038 0.082155094 -13.759475 0.43074784 -125.49186
12600000000 0.53873497 -179.16794 3.9148021 0.52943879 0.082419112 -14.60296 0.43016171 -126.55688
12700000000 0.53683639 179.41977 3.9075973 -0.70247096 0.082694873 -15.281927 0.42965022 -127.63242
12800000000 0.53409576 178.07083 3.9012313 -1.9722701 0.082762606 -16.176008 0.42887017 -128.60774
12900000000 0.53196305 176.71994 3.8931694 -3.2316556 0.082566425 -17.163771 0.42791536 -129.62534
13000000000 0.52890372 175.35863 3.884877 -4.4700794 0.082555965 -17.598646 0.42748937 -130.63239
13100000000 0.52650028 174.06404 3.8754685 -5.7102184 0.082689539 -18.157141 0.42696431 -131.60399
13200000000 0.52419883 172.78987 3.8678064 -6.9452262 0.082739905 -18.88113 0.42642266 -132.5603
13300000000 0.52187234 171.50046 3.8596096 -8.171607 0.082462341 -19.616913 0.42608836 -133.49449
13400000000 0.51953757 170.20038 3.8518 -9.3937063 0.082668014 -19.984978 0.42620587 -134.45134
13500000000 0.51708341 168.91853 3.8447456 -10.625481 0.082651488 -20.555086 0.42580068 -135.43803
13600000000 0.51538163 167.66774 3.8379006 -11.838012 0.082738221 -21.236792 0.42584604 -136.36206
13700000000 0.51340497 166.42049 3.8312294 -13.068711 0.082855724 -21.759129 0.42612773 -137.33037
13800000000 0.5114044 165.12585 3.8242953 -14.293259 0.082836099 -22.263475 0.42598563 -138.29065
13900000000 0.50935262 163.83066 3.8171859 -15.500218 0.082795404 -22.743324 0.42621693 -139.25368
14000000000 0.50739789 162.58792 3.8119998 -16.694792 0.083195791 -23.45586 0.42645919 -140.16652
14100000000 0.50510103 161.30356 3.8043919 -17.902788 0.083093107 -23.985001 0.42655855 -141.16507
14200000000 0.50333071 160.10416 3.7995822 -19.111326 0.083109312 -24.418362 0.42681909 -142.11002
14300000000 0.50153911 158.85168 3.794781 -20.305046 0.083255619 -25.058636 0.42695045 -143.05118
14400000000 0.49982995 157.56734 3.7915394 -21.500168 0.083600886 -25.647873 0.4273124 -143.95299
14500000000 0.49801949 156.36589 3.7880623 -22.695112 0.083606489 -26.293514 0.42785627 -144.89481
14600000000 0.4962998 155.14464 3.785964 -23.917645 0.083438322 -26.879438 0.42875394 -145.90115
14700000000 0.49489814 153.87816 3.7828498 -25.124641 0.083623379 -27.30621 0.42896888 -146.82484
14800000000 0.4934341 152.63837 3.7791693 -26.355379 0.083614603 -27.992054 0.42969474 -147.81058
14900000000 0.49179071 151.39594 3.7767134 -27.570456 0.083882868 -28.47686 0.43009278 -148.76595
15000000000 0.49027124 150.11899 3.7740943 -28.798674 0.083821349 -28.941065 0.43071145 -149.72778
15100000000 0.48877898 148.90182 3.7721193 -30.000607 0.083989844 -29.682882 0.4313978 -150.72545
15200000000 0.48727724 147.68491 3.7693985 -31.214958 0.084092066 -30.118803 0.43157625 -151.68092
15300000000 0.48610699 146.38106 3.7695384 -32.441696 0.083848558 -30.758295 0.43227965 -152.68849
15400000000 0.48481977 145.16258 3.767185 -33.678909 0.084356375 -31.27916 0.43269783 -153.63011
15500000000 0.4834787 143.90448 3.7652285 -34.902092 0.084197126 -31.725735 0.43356866 -154.62611
15600000000 0.48190698 142.6366 3.7643306 -36.134087 0.084290214 -32.380291 0.43383661 -155.644
15700000000 0.48053202 141.3541 3.7639799 -37.362255 0.084426813 -33.024952 0.4348743 -156.5722
15800000000 0.47954458 140.13321 3.7624266 -38.592655 0.08461412 -33.456646 0.4357737 -157.50745
15900000000 0.47827151 138.81293 3.7621922 -39.822601 0.084592968 -34.070423 0.43629664 -158.48331
16000000000 0.47693816 137.55243 3.7612729 -41.060047 0.084728383 -34.613811 0.43708611 -159.48984
16100000000 0.47573116 136.23793 3.7602947 -42.303116 0.084733889 -35.152397 0.43769938 -160.45074
16200000000 0.47427413 134.95479 3.7608135 -43.538982 0.08469487 -35.729809 0.4388316 -161.49364
16300000000 0.47282773 133.69205 3.7617097 -44.776855 0.084576279 -36.468674 0.43959692 -162.47725
16400000000 0.47187006 132.37448 3.7612071 -46.010086 0.084905751 -37.008095 0.44051039 -163.46085
16500000000 0.47034377 131.07587 3.7614698 -47.255043 0.084880285 -37.571079 0.4414897 -164.47556
16600000000 0.46940646 129.80379 3.7622871 -48.491554 0.084885776 -38.125771 0.44263744 -165.4651
16700000000 0.46812969 128.49591 3.7632251 -49.736607 0.084954172 -38.700447 0.44359469 -166.50269
16800000000 0.46685153 127.14657 3.7641871 -50.971161 0.084992819 -39.193523 0.44400537 -167.49542
16900000000 0.46566883 125.8673 3.7646768 -52.207226 0.084853739 -39.740406 0.44468209 -168.46515
17000000000 0.46434516 124.55693 3.7660589 -53.452858 0.085087121 -40.467255 0.44565928 -169.54796
17100000000 0.46288455 123.22643 3.7682936 -54.677086 0.085178256 -41.051319 0.44589645 -170.52673
17200000000 0.46235481 121.93184 3.7701101 -55.88229 0.084990151 -41.6422 0.44658306 -171.495
17300000000 0.46140772 120.59981 3.7721841 -57.117336 0.085136697 -42.019836 0.44693115 -172.46407
17400000000 0.46038198 119.22979 3.7760751 -58.311928 0.085067518 -42.740669 0.44698423 -173.45676
17500000000 0.4593468 117.84228 3.7800863 -59.524635 0.085209586 -43.197533 0.44736958 -174.31844
17600000000 0.45871228 116.47914 3.7878106 -60.721931 0.085199893 -43.741241 0.44801712 -175.19411
17700000000 0.45769852 115.07746 3.7959862 -61.953804 0.085369498 -44.265854 0.44913903 -176.02896
17800000000 0.45617032 113.66813 3.8058953 -63.188915 0.085351817 -44.946941 0.4503051 -176.87057
17900000000 0.45536458 112.25677 3.8153725 -64.48053 0.085487619 -45.500267 0.45184889 -177.81654
18000000000 0.45426419 110.84641 3.824856 -65.781799 0.085493349 -46.110886 0.45351726 -178.78165
18100000000 0.45310494 109.3615 3.8338687 -67.064751 0.085545711 -46.784317 0.45559493 -179.75114
18200000000 0.45203006 107.95058 3.8423967 -68.380417 0.085586533 -47.350925 0.45724538 179.26024
18300000000 0.45109218 106.51241 3.8517249 -69.693092 0.085530296 -48.016121 0.45881769 178.24788
18400000000 0.44991133 105.06554 3.8605614 -71.00901 0.085712828 -48.642769 0.46038836 177.22415
18500000000 0.44886845 103.55908 3.8694489 -72.337578 0.085742675 -49.158924 0.46229658 176.17929
18600000000 0.44817725 102.07055 3.8783195 -73.656464 0.085649408 -49.99419 0.46361139 175.17461
18700000000 0.44728571 100.63642 3.8898084 -74.996399 0.085874945 -50.541954 0.46549842 174.06308
18800000000 0.44586575 99.085739 3.9001453 -76.33551 0.085707434 -51.218559 0.466887 172.99127
18900000000 0.4450565 97.552879 3.9087362 -77.683266 0.085704148 -51.877174 0.46905461 171.9166
19000000000 0.44452974 96.013184 3.9195328 -79.034332 0.08592274 -52.512737 0.47084114 170.82149
19100000000 0.44347745 94.475006 3.9306509 -80.373367 0.08568906 -53.194195 0.4722982 169.73058
19200000000 0.44233584 92.904892 3.9410267 -81.752838 0.085787892 -53.937965 0.47396854 168.6235
19300000000 0.4418574 91.285477 3.953809 -83.10405 0.085780367 -54.499493 0.47567534 167.49309
19400000000 0.4409585 89.70401 3.9659004 -84.493057 0.085557565 -55.239178 0.47728279 166.39864
19500000000 0.44012377 88.081711 3.9786341 -85.862984 0.085584953 -56.028076 0.47877982 165.278
19600000000 0.43923551 86.426575 3.9922433 -87.272293 0.08550109 -56.789341 0.48065963 164.08578
19700000000 0.438411 84.784142 4.004643 -88.679985 0.085661471 -57.429855 0.48213762 162.94795
19800000000 0.4381457 83.124779 4.0177526 -90.073769 0.085520193 -58.202038 0.48365533 161.82164
19900000000 0.43739495 81.446838 4.0312657 -91.500938 0.085453041 -58.822723 0.48508117 160.65135
20000000000 0.43680713 79.746315 4.0475464 -92.927917 0.085416675 -59.61517 0.48680705 159.50778
20100000000 0.43591383 77.963989 4.0610027 -94.390648 0.085607775 -60.300381 0.48840824 158.34097
20200000000 0.4357923 76.223557 4.0752153 -95.8302 0.085186444 -61.108383 0.48951864 157.16324
20300000000 0.43544561 74.463585 4.0920434 -97.277588 0.085372962 -61.852512 0.4911691 155.97879
20400000000 0.43493223 72.637817 4.1066704 -98.759972 0.085177727 -62.600338 0.49258849 154.77979
20500000000 0.43457961 70.817314 4.1239467 -100.23373 0.085101731 -63.414482 0.49361736 153.56448
20600000000 0.43451336 69.018059 4.1391983 -101.72195 0.08491689 -64.351318 0.49545079 152.35191
20700000000 0.43390638 67.114357 4.1560683 -103.22722 0.084648222 -65.169617 0.49664009 151.11502
20800000000 0.43381441 65.220299 4.1719828 -104.7184 0.084592775 -66.024544 0.4981111 149.85283
20900000000 0.43391123 63.350353 4.1899734 -106.24469 0.084576927 -66.754257 0.49972901 148.57944
21000000000 0.43386093 61.40601 4.207572 -107.77236 0.084239565 -67.598122 0.5008961 147.30078
21100000000 0.43365908 59.408344 4.225522 -109.31405 0.084099852 -68.574829 0.50283009 146.05077
21200000000 0.43375376 57.38731 4.2445188 -110.89533 0.083830126 -69.392456 0.50367069 144.69273
21300000000 0.43375733 55.420551 4.2634425 -112.44559 0.083614394 -70.284225 0.50506639 143.37035
21400000000 0.43399692 53.427643 4.280705 -114.01262 0.08357498 -71.119598 0.5063467 142.07599
21500000000 0.43422619 51.292004 4.300766 -115.61676 0.083302647 -72.201836 0.50792122 140.69196
21600000000 0.43485197 49.20359 4.3200364 -117.2418 0.083093479 -73.119667 0.50918478 139.2962
21700000000 0.43495959 47.121521 4.338912 -118.87102 0.082656346 -74.062851 0.51031923 137.92648
21800000000 0.43554515 44.9589 4.3592687 -120.49578 0.081910864 -75.275383 0.51167423 136.49973
21900000000 0.43635052 42.751747 4.3793626 -122.15417 0.082003161 -76.27494 0.51278114 135.06697
22000000000 0.43696594 40.522881 4.3987575 -123.84201 0.081515938 -77.356468 0.51461393 133.6687
22100000000 0.43758696 38.343895 4.4192586 -125.51621 0.081037611 -78.184814 0.51564384 132.23683
22200000000 0.43823755 36.114445 4.4387927 -127.22507 0.080602102 -79.298233 0.51722389 130.72731
22300000000 0.43958414 33.790253 4.4599342 -128.94276 0.080183104 -80.425018 0.51861161 129.25458
