!Mini-Circuits Laboratory
!Date: 11/3/2015 at 2:06:02 PM
!S2P DATA File Format
!Type: MMIC Amplifier
!Model: CMA-84+
!S/N: Unit 1
!Fixture: TB-829-84+ NO PORT EXTENSION.
!PIN OUT: PORT 1 - PIN 2, PORT 2 - PIN 7, GROUND - 1,3,4,5,6,8,Bottom Center Paddle
!TEST CONDITIONS: Temp= +85 (Deg C) RF Power= -25.00 (dBm) V limit=5(V) I limit=250(mA) Z=50 OHM
!Run H77400/ Date Code: 1448
!Network Analyzer: PNA-X N5242A S/N 71404 CAL DUE: 12/5/2015
!P.Supply/Multimeter: HP E3632A S/N 63249 CAL DUE: 12/11/2015
!Tested with: 
!
# Hz  S  dB  R  50
!Frequency    S11 dB        S11 Deg       S21 dB        S21 Deg       S12 dB        S12 Deg       S22 dB        S22 Deg       
10000000      -27.7516500   179.2676000   24.3394500    179.0991000   -31.2208900   1.3955010     -21.0763300   4.4740860     
15000000      -30.4638900   -156.8330000  24.3735000    179.5051000   -31.1782000   1.5763170     -19.9816700   -5.4307510    
20000000      -28.2567700   -176.9323000  24.3432800    178.0960000   -31.2273400   0.3336649     -21.0493700   -3.5175080    
25000000      -27.4147300   -179.9075000  24.3263300    177.3615000   -31.2417700   -0.0959394    -21.5087400   -5.1966030    
30000000      -27.8107000   -176.3187000  24.3528800    177.0466000   -31.2333700   -0.1364295    -21.1313700   -8.8659230    
35000000      -28.2719600   -175.9335000  24.3461500    176.6767000   -31.2696500   -0.0991462    -21.0404300   -10.9476900   
40000000      -27.5323500   -176.1048000  24.3423300    176.1138000   -31.2455300   -0.3074377    -21.2341300   -13.0549800   
45000000      -27.3441700   -176.2063000  24.3434000    175.5909000   -31.2478500   -0.4154899    -21.3523500   -14.9293400   
50000000      -27.2701400   -176.7311000  24.3479700    175.1356000   -31.2443200   -0.5067205    -21.3242400   -17.0291900   
55000000      -27.2131200   -175.2849000  24.3344300    174.7966000   -31.2221900   -0.7757636    -21.2544700   -19.7149000   
60000000      -27.0102100   -174.9396000  24.3320900    174.3219000   -31.2259600   -0.8715222    -21.3035600   -21.6109700   
65000000      -26.6925800   -175.8144000  24.3330100    173.8262000   -31.2215100   -0.9758992    -21.3327100   -23.7827900   
70000000      -26.5626100   -175.5524000  24.3322400    173.3326000   -31.2191000   -1.1191990    -21.3233900   -25.6113200   
75000000      -26.4411200   -175.4788000  24.3300400    172.8893000   -31.2273800   -1.1850710    -21.3414400   -27.8722000   
80000000      -26.4180500   -175.5643000  24.3246100    172.4030000   -31.2229600   -1.2674160    -21.3241000   -29.7917000   
85000000      -26.3466100   -174.7014000  24.3202300    171.9405000   -31.2244800   -1.3288940    -21.3068400   -31.8389100   
90000000      -26.2082300   -174.2701000  24.3166800    171.4612000   -31.2240700   -1.4634710    -21.2705800   -34.1066300   
95000000      -26.0970700   -173.0867000  24.3146900    170.9869000   -31.2216100   -1.5427490    -21.2228700   -36.0779700   
100000000     -25.9348200   -172.2857000  24.3111900    170.5324000   -31.2204700   -1.6210820    -21.1882600   -38.1311400   
105000000     -25.7614500   -171.3753000  24.3082000    170.0474000   -31.2166700   -1.7352170    -21.1084700   -40.2539500   
110000000     -25.6213700   -170.8728000  24.3072800    169.5377000   -31.2189800   -1.7809540    -21.0440600   -42.2250700   
115000000     -25.4603200   -170.4012000  24.3037200    169.0517000   -31.2139900   -1.8630840    -20.9407800   -44.2325800   
120000000     -25.3779800   -169.6037000  24.3005500    168.5878000   -31.2151800   -1.9824940    -20.8257800   -45.9366400   
125000000     -25.3227700   -169.1943000  24.2956400    168.1203000   -31.2130800   -2.0419990    -20.7059800   -47.6610000   
130000000     -25.2299200   -168.2212000  24.2939400    167.6617000   -31.2131400   -2.1113510    -20.6048800   -49.4109500   
135000000     -25.1446600   -167.5194000  24.2899900    167.1968000   -31.2070100   -2.1901780    -20.4608600   -51.0459700   
140000000     -25.0399700   -166.8991000  24.2860400    166.7216000   -31.2072000   -2.2615860    -20.3291500   -52.7305800   
145000000     -24.9783900   -166.0724000  24.2818100    166.2572000   -31.2044100   -2.3518160    -20.1771600   -54.1883300   
150000000     -24.9145900   -165.6655000  24.2744300    165.8196000   -31.2003800   -2.4576460    -20.0247500   -55.6436600   
155000000     -24.8755000   -165.0211000  24.2689800    165.3359000   -31.1999400   -2.5140660    -19.8753100   -57.1009200   
160000000     -24.8428800   -164.5838000  24.2634700    164.8740000   -31.1941600   -2.5903610    -19.7443300   -58.4469100   
165000000     -24.8501300   -163.6415000  24.2594400    164.4341000   -31.1931700   -2.6665330    -19.6011700   -59.6545900   
170000000     -24.8501100   -163.1420000  24.2576200    163.9526000   -31.1957600   -2.7184510    -19.4417400   -60.8553000   
175000000     -24.8091900   -162.5541000  24.2489700    163.5018000   -31.1869600   -2.8174050    -19.3056900   -62.1002800   
180000000     -24.8086700   -161.7862000  24.2438400    163.0368000   -31.1846000   -2.8582510    -19.1776200   -63.1739800   
185000000     -24.7562000   -160.9258000  24.2412100    162.5569000   -31.1767300   -2.9717170    -19.0027600   -64.2815500   
190000000     -24.7471600   -160.1481000  24.2372500    162.1199000   -31.1780200   -3.0333120    -18.8700600   -65.2742700   
195000000     -24.6933200   -159.6406000  24.2342000    161.6246000   -31.1761600   -3.1171210    -18.6929000   -66.2671100   
200000000     -24.6549600   -159.1158000  24.2279700    161.1755000   -31.1747600   -3.2057150    -18.5659400   -67.2652400   
205000000     -24.6736800   -158.3105000  24.2240700    160.7188000   -31.1655000   -3.2838150    -18.4027300   -68.1420400   
210000000     -24.6832500   -157.7817000  24.2145000    160.2744000   -31.1546000   -3.3258950    -18.2863700   -69.1789900   
215000000     -24.6314000   -156.8186000  24.2141800    159.8092000   -31.1564200   -3.4264960    -18.1153500   -70.0168400   
220000000     -24.6301100   -156.1904000  24.2071300    159.3493000   -31.1518100   -3.4998140    -17.9972300   -71.0146000   
225000000     -24.6657100   -155.6694000  24.2039100    158.9039000   -31.1479500   -3.5690710    -17.8655100   -71.7866100   
230000000     -24.5066100   -154.8788000  24.1953200    158.4235000   -31.1403800   -3.6540570    -17.7159900   -72.7693100   
235000000     -24.5869100   -154.8711000  24.1908200    157.9758000   -31.1432600   -3.7453980    -17.5898400   -73.5822800   
240000000     -24.5569100   -154.2134000  24.1857200    157.5058000   -31.1387200   -3.7792790    -17.4879200   -74.3584900   
245000000     -24.5404500   -154.2525000  24.1789100    157.0493000   -31.1310600   -3.9033850    -17.3595600   -75.1943800   
250000000     -24.5559000   -153.4274000  24.1736900    156.5892000   -31.1253900   -3.9958510    -17.2305300   -76.1007200   
255000000     -24.4847200   -153.0463000  24.1645300    156.1187000   -31.1202400   -4.0637960    -17.1134100   -76.9394100   
260000000     -24.4825200   -152.9999000  24.1609400    155.6680000   -31.1223900   -4.1308370    -17.0060500   -77.7991200   
265000000     -24.5235500   -151.9843000  24.1547700    155.2254000   -31.1114200   -4.2244870    -16.9019700   -78.3585600   
270000000     -24.3790500   -152.0493000  24.1520700    154.7573000   -31.1029100   -4.3183140    -16.7789000   -79.2467300   
275000000     -24.2891000   -151.3397000  24.1455000    154.2956000   -31.0989300   -4.3205840    -16.6776700   -80.1022500   
280000000     -24.3063000   -151.5792000  24.1426100    153.8450000   -31.1020300   -4.4509800    -16.5553200   -80.8592200   
285000000     -24.1890900   -151.3967000  24.1337200    153.3660000   -31.0898700   -4.5434370    -16.4618400   -81.7818100   
290000000     -24.1190000   -151.3874000  24.1269100    152.9150000   -31.0853900   -4.5990260    -16.3734400   -82.6197600   
295000000     -24.0109800   -151.8197000  24.1213500    152.4489000   -31.0706100   -4.7064720    -16.2666500   -83.3785600   
300000000     -23.9748600   -151.2638000  24.1141500    152.0031000   -31.0657400   -4.8283330    -16.1634100   -84.3220300   
305000000     -23.9868800   -150.7609000  24.1074000    151.5778000   -31.0672500   -4.8799610    -16.0667000   -84.9823300   
310000000     -23.9802700   -150.8854000  24.1071100    151.0949000   -31.0538100   -4.9246550    -15.9827700   -85.7267400   
315000000     -23.8821900   -150.8427000  24.0988300    150.6676000   -31.0513800   -5.0559860    -15.8968000   -86.5088100   
320000000     -23.7978200   -150.8573000  24.0892100    150.2085000   -31.0490900   -5.1374110    -15.7899600   -87.3897300   
325000000     -23.7848300   -150.8195000  24.0817900    149.7593000   -31.0396300   -5.2170760    -15.6976400   -88.0432700   
330000000     -23.6914100   -150.5500000  24.0749500    149.3075000   -31.0368700   -5.2865920    -15.6064800   -88.8783300   
335000000     -23.5884700   -149.8833000  24.0700000    148.8391000   -31.0243000   -5.3715730    -15.4999400   -89.5491700   
340000000     -23.5128200   -149.9261000  24.0602700    148.3757000   -31.0255200   -5.4275170    -15.4024400   -90.3875100   
345000000     -23.4741400   -149.9668000  24.0598100    147.9247000   -31.0228200   -5.5412800    -15.3142200   -91.0624900   
350000000     -23.3951900   -150.0433000  24.0479900    147.5008000   -31.0050800   -5.6252580    -15.2263300   -91.8055400   
355000000     -23.3258900   -150.0217000  24.0431400    147.0255000   -31.0033600   -5.6907450    -15.1387400   -92.5755500   
360000000     -23.2287800   -150.5953000  24.0328800    146.5555000   -30.9934100   -5.8025580    -15.0368300   -93.3826500   
365000000     -23.1544200   -150.0044000  24.0274500    146.1329000   -30.9794400   -5.8779100    -14.9669400   -94.0265300   
370000000     -22.9733600   -150.0529000  24.0215400    145.6519000   -30.9764100   -5.9894930    -14.8581800   -94.7708800   
375000000     -22.9838300   -150.4310000  24.0120600    145.2044000   -30.9666600   -6.0760580    -14.7786800   -95.5850400   
380000000     -22.8957100   -150.4056000  24.0036800    144.7313000   -30.9700200   -6.1308620    -14.6893500   -96.3610000   
385000000     -22.8313200   -150.4069000  24.0001900    144.3050000   -30.9543700   -6.2966280    -14.6125700   -97.0925100   
390000000     -22.7195100   -150.1916000  23.9898700    143.8559000   -30.9489700   -6.3730680    -14.5257900   -97.8038100   
395000000     -22.6892000   -150.7351000  23.9840400    143.4101000   -30.9424500   -6.4599070    -14.4364300   -98.5061600   
400000000     -22.5935600   -150.4391000  23.9725700    142.9230000   -30.9306500   -6.5395910    -14.3555200   -99.1595000   
405000000     -22.4422700   -151.2602000  23.9663900    142.4630000   -30.9253800   -6.6182680    -14.2770800   -99.7994400   
410000000     -22.4168400   -151.0207000  23.9561800    142.0258000   -30.9225400   -6.7294270    -14.1846000   -100.6188000  
415000000     -22.3839300   -151.2047000  23.9501100    141.5767000   -30.9187200   -6.8060330    -14.1137800   -101.2521000  
420000000     -22.2730900   -151.0973000  23.9409400    141.1318000   -30.9147700   -6.8541520    -14.0335000   -101.8445000  
425000000     -22.2506800   -150.6138000  23.9328000    140.6861000   -30.8995400   -7.0038760    -13.9374300   -102.4240000  
430000000     -22.1539300   -150.9873000  23.9263700    140.2296000   -30.8964200   -7.1058000    -13.8493800   -103.1106000  
435000000     -22.1125500   -150.5962000  23.9137800    139.8054000   -30.8849100   -7.1637280    -13.7704700   -103.6579000  
440000000     -22.0207800   -150.6332000  23.9068200    139.3543000   -30.8745300   -7.2919850    -13.6861400   -104.2018000  
445000000     -21.9218500   -151.1890000  23.8950200    138.8926000   -30.8766700   -7.4056690    -13.6027400   -104.8922000  
450000000     -21.9501500   -150.2869000  23.8870600    138.4916000   -30.8692900   -7.4289480    -13.5408000   -105.4803000  
455000000     -21.8643300   -150.6660000  23.8756000    138.0269000   -30.8532600   -7.5713650    -13.4613800   -106.0537000  
460000000     -21.7226700   -150.1005000  23.8699200    137.6003000   -30.8496600   -7.6786540    -13.3956100   -106.6323000  
465000000     -21.7507600   -149.7680000  23.8646600    137.1425000   -30.8350700   -7.7582790    -13.3248800   -107.1011000  
470000000     -21.6138500   -150.0293000  23.8525100    136.6926000   -30.8336000   -7.8411910    -13.2482700   -107.6257000  
475000000     -21.5702300   -150.1169000  23.8442100    136.2665000   -30.8189400   -7.9996220    -13.1761800   -108.2392000  
480000000     -21.5653300   -150.4833000  23.8355500    135.8131000   -30.8156700   -8.0273140    -13.1118700   -108.7566000  
485000000     -21.5187800   -150.1930000  23.8265200    135.3617000   -30.8059100   -8.1221520    -13.0422300   -109.3550000  
490000000     -21.3847600   -150.2525000  23.8192400    134.9119000   -30.7955600   -8.2394110    -12.9663300   -109.8139000  
495000000     -21.3663000   -150.5424000  23.8082700    134.4921000   -30.7902500   -8.3178420    -12.9082300   -110.4469000  
500000000     -21.3076800   -150.4921000  23.7994900    134.0313000   -30.7830800   -8.4134700    -12.8257200   -111.0447000  
505000000     -21.3295300   -150.4001000  23.7900600    133.5769000   -30.7779300   -8.5156080    -12.7612300   -111.6142000  
510000000     -21.2448400   -150.1656000  23.7813700    133.1425000   -30.7729200   -8.6136740    -12.6926900   -112.1298000  
515000000     -21.2180500   -150.2869000  23.7735300    132.6874000   -30.7559100   -8.6822340    -12.6289900   -112.6850000  
520000000     -21.1640900   -150.6318000  23.7657200    132.2338000   -30.7548000   -8.8134790    -12.5437700   -113.1587000  
525000000     -21.1621900   -150.2258000  23.7535500    131.8134000   -30.7444400   -8.9030990    -12.4996400   -113.8043000  
530000000     -21.0691100   -150.5621000  23.7394800    131.3824000   -30.7402000   -9.0288170    -12.4233900   -114.4330000  
535000000     -21.0106700   -150.2291000  23.7332900    130.9473000   -30.7313400   -9.0803000    -12.3556500   -114.8617000  
540000000     -20.9139200   -150.5601000  23.7239700    130.4979000   -30.7195500   -9.2153700    -12.2928900   -115.2938000  
545000000     -20.8685200   -150.2756000  23.7147700    130.0575000   -30.7102600   -9.3018150    -12.2302200   -115.7787000  
550000000     -20.8027500   -150.4203000  23.7034200    129.5953000   -30.6977600   -9.3821740    -12.1637200   -116.2539000  
555000000     -20.8239500   -150.4491000  23.6964200    129.1809000   -30.6910600   -9.5494330    -12.0987100   -116.6501000  
560000000     -20.7283500   -150.1718000  23.6889500    128.7354000   -30.6782900   -9.6148010    -12.0522100   -117.1131000  
565000000     -20.7394700   -150.3604000  23.6765800    128.3130000   -30.6708300   -9.7047010    -11.9990100   -117.6113000  
570000000     -20.6595600   -150.2708000  23.6649300    127.8738000   -30.6608300   -9.8363700    -11.9244400   -118.0486000  
575000000     -20.6026700   -150.0858000  23.6556500    127.4462000   -30.6496600   -9.9316310    -11.8704900   -118.5821000  
580000000     -20.6028100   -150.6387000  23.6446100    127.0069000   -30.6445800   -10.0397300   -11.8167500   -119.1150000  
585000000     -20.6404500   -150.4193000  23.6335600    126.5687000   -30.6472200   -10.1318100   -11.7606800   -119.5604000  
590000000     -20.5479400   -150.6220000  23.6239200    126.1356000   -30.6249800   -10.2380900   -11.7095100   -120.0387000  
595000000     -20.4982800   -150.6751000  23.6139300    125.7098000   -30.6207500   -10.3662100   -11.6564200   -120.5296000  
600000000     -20.4533100   -150.6510000  23.6064300    125.2523000   -30.6079400   -10.4479600   -11.5998900   -120.9790000  
605000000     -20.4715200   -151.1398000  23.5932600    124.8519000   -30.5967800   -10.5584400   -11.5527400   -121.5259000  
610000000     -20.3670300   -151.1500000  23.5853500    124.3948000   -30.5915900   -10.6936000   -11.4878300   -121.9534000  
615000000     -20.3603500   -151.5113000  23.5742700    123.9779000   -30.5770500   -10.7566800   -11.4442500   -122.5374000  
620000000     -20.3227200   -151.4925000  23.5617700    123.5497000   -30.5687100   -10.8786800   -11.3862400   -123.0670000  
625000000     -20.2424900   -151.7339000  23.5529500    123.1171000   -30.5537300   -11.0270300   -11.3286800   -123.5374000  
630000000     -20.2067200   -151.7940000  23.5426300    122.7019000   -30.5491800   -11.1200100   -11.2786600   -124.0165000  
635000000     -20.1936300   -152.0270000  23.5328300    122.2509000   -30.5421000   -11.2106200   -11.2248900   -124.5168000  
640000000     -20.1478300   -152.0931000  23.5197800    121.8432000   -30.5241500   -11.3109000   -11.1733100   -125.0421000  
645000000     -20.0532000   -152.3685000  23.5160800    121.3986000   -30.5234700   -11.4163500   -11.1101500   -125.4285000  
650000000     -19.9996300   -152.1798000  23.5053400    120.9616000   -30.5062000   -11.5498300   -11.0619600   -125.9259000  
655000000     -19.9521400   -152.5042000  23.4914600    120.5452000   -30.5001700   -11.7006000   -11.0120400   -126.4210000  
660000000     -19.9249300   -152.9234000  23.4792100    120.0842000   -30.4841900   -11.8290300   -10.9530800   -126.8875000  
665000000     -19.9069900   -152.7579000  23.4695200    119.6442000   -30.4826100   -11.9056600   -10.9120900   -127.3902000  
670000000     -19.8477400   -153.0188000  23.4615600    119.2135000   -30.4727600   -12.0587800   -10.8664300   -127.8209000  
675000000     -19.8475900   -153.1521000  23.4447100    118.7775000   -30.4574300   -12.1846400   -10.8269100   -128.2967000  
680000000     -19.7596100   -152.8665000  23.4387600    118.3570000   -30.4472500   -12.2376400   -10.7848500   -128.7432000  
685000000     -19.7600400   -153.1353000  23.4222900    117.9372000   -30.4407700   -12.3782300   -10.7383300   -129.2570000  
690000000     -19.7086600   -153.2655000  23.4135600    117.5090000   -30.4283100   -12.4994700   -10.6914200   -129.6549000  
695000000     -19.7023500   -153.5781000  23.4007900    117.0641000   -30.4188800   -12.6246100   -10.6600200   -130.1951000  
700000000     -19.6489900   -153.6863000  23.3898200    116.6579000   -30.4135600   -12.7339600   -10.6021000   -130.6032000  
705000000     -19.5643100   -153.8149000  23.3794900    116.2151000   -30.3915400   -12.8460000   -10.5657900   -131.0511000  
710000000     -19.5944500   -154.0495000  23.3675400    115.7901000   -30.3878300   -12.9785400   -10.5182300   -131.5214000  
715000000     -19.5299500   -154.3310000  23.3538900    115.3654000   -30.3755100   -13.0992500   -10.4748300   -132.0214000  
720000000     -19.4830600   -154.7351000  23.3418900    114.9322000   -30.3619300   -13.2070900   -10.4301500   -132.4843000  
725000000     -19.4687000   -154.5267000  23.3359800    114.5527000   -30.3536700   -13.3263400   -10.3891200   -132.9926000  
730000000     -19.4530100   -154.9444000  23.3216500    114.0937000   -30.3506500   -13.4404500   -10.3386900   -133.4535000  
735000000     -19.3307500   -155.0505000  23.3105000    113.6606000   -30.3395900   -13.5874900   -10.2973600   -133.9211000  
740000000     -19.3162200   -155.4163000  23.2992600    113.2431000   -30.3256100   -13.6954900   -10.2499600   -134.3892000  
745000000     -19.3098600   -155.5779000  23.2856700    112.8379000   -30.3190300   -13.8054700   -10.2073600   -134.8531000  
750000000     -19.2481800   -155.8397000  23.2724200    112.4057000   -30.3074900   -13.9290000   -10.1605400   -135.2984000  
755000000     -19.2205800   -155.9924000  23.2599600    111.9920000   -30.2966700   -14.0397600   -10.1173700   -135.7300000  
